date Wed Jul 3 02:29:04.899 pm 2019
base hex  timestamps absolute
internal events logged
// version 8.5.0
Begin Triggerblock Wed Jul 3 02:29:04.899 pm 2019
   0.000000 Start of measurement
   0.026768 CAN 1 Status:chip status error active
   0.500792 1  204             Tx   d 8 10 FF 3F 00 00 00 00 00  Length = 244259 BitCount = 125 ID = 516
   0.501052 1  300             Rx   d 8 06 03 22 E6 0E B4 20 FF  Length = 227972 BitCount = 118 ID = 768
   0.501288 1  301             Rx   d 8 0F 63 20 4F 0E B4 20 FF  Length = 225988 BitCount = 117 ID = 769
   0.501524 1  302             Rx   d 8 13 23 23 E8 0E B4 20 FF  Length = 225972 BitCount = 117 ID = 770
   0.501762 1  303             Rx   d 8 16 E3 23 7C 0E B4 20 FF  Length = 227972 BitCount = 118 ID = 771
   0.502000 1  304             Rx   d 8 1A 63 23 62 0E B4 20 FF  Length = 227972 BitCount = 118 ID = 772
   0.502236 1  305             Rx   d 8 1E D3 23 54 0E B4 20 FF  Length = 225988 BitCount = 117 ID = 773
   0.502476 1  306             Rx   d 8 1E D3 20 F5 0E B4 20 FF  Length = 229972 BitCount = 119 ID = 774
   0.502711 1  307             Rx   d 8 21 C3 23 A3 0E B4 20 FF  Length = 223972 BitCount = 116 ID = 775
   0.502957 1  308             Rx   d 8 FF FF FF FF FF B4 6F F8  Length = 235972 BitCount = 122 ID = 776
   0.503199 1  309             Rx   d 8 FF FF FF FF FF B4 6F F9  Length = 231972 BitCount = 120 ID = 777
   0.503447 1  380             Rx   d 8 00 00 29 00 34 FF 00 00  Length = 237988 BitCount = 123 ID = 896
   0.503697 1  381             Rx   d 8 00 00 00 00 00 05 00 05  Length = 239972 BitCount = 124 ID = 897
   0.503933 1  382             Rx   d 8 2F 8B 13 78 0C F3 04 B5  Length = 225972 BitCount = 117 ID = 898
   0.504181 1  383             Rx   d 8 00 00 00 00 00 00 2A 00  Length = 237972 BitCount = 123 ID = 899
   0.504425 1  384             Rx   d 8 00 00 00 34 00 35 00 34  Length = 233988 BitCount = 121 ID = 900
   0.504667 1  385             Rx   d 8 00 33 00 35 00 34 00 34  Length = 231972 BitCount = 120 ID = 901
   0.504911 1  386             Rx   d 8 00 33 00 37 00 00 00 00  Length = 233972 BitCount = 121 ID = 902
   0.505154 1  387             Rx   d 8 07 1F 03 EC 02 17 00 00  Length = 231972 BitCount = 120 ID = 903
   0.505404 1  388             Rx   d 8 27 10 2F 00 2F 00 00 00  Length = 239988 BitCount = 124 ID = 904
   0.505654 1  389             Rx   d 8 00 00 00 00 00 00 00 00  Length = 239972 BitCount = 124 ID = 905
   0.505904 1  38A             Rx   d 8 00 00 00 00 00 00 00 00  Length = 239972 BitCount = 124 ID = 906
   0.506156 1  38B             Rx   d 8 00 00 00 00 00 00 00 00  Length = 241972 BitCount = 125 ID = 907
   0.506408 1  38C             Rx   d 8 00 00 00 00 00 00 00 00  Length = 241972 BitCount = 125 ID = 908
   0.506658 1  38D             Rx   d 8 00 00 00 00 00 00 00 00  Length = 239988 BitCount = 124 ID = 909
   0.506908 1  38E             Rx   d 8 00 00 00 00 00 00 00 00  Length = 239972 BitCount = 124 ID = 910
   0.507158 1  38F             Rx   d 8 00 00 00 00 00 00 00 00  Length = 239972 BitCount = 124 ID = 911
   0.507408 1  3FF             Rx   d 8 00 00 00 00 00 B4 00 00  Length = 239972 BitCount = 124 ID = 1023
   0.507657 1  390             Rx   d 8 7B 00 00 00 00 00 00 00  Length = 237988 BitCount = 123 ID = 912
   0.507901 1  621             Rx   d 8 60 EF BE 00 00 B4 00 00  Length = 233972 BitCount = 121 ID = 1569
   0.508145 1  622             Rx   d 8 60 00 00 00 00 B4 00 00  Length = 233972 BitCount = 121 ID = 1570
   0.508383 1  625             Rx   d 8 18 4C F1 00 00 B4 00 00  Length = 227972 BitCount = 118 ID = 1573
   0.508625 1  400             Rx   d 8 80 80 00 00 51 B4 D8 18  Length = 231972 BitCount = 120 ID = 1024
   1.000607 1  100             Tx   d 8 77 77 00 00 10 00 00 00  Length = 240244 BitCount = 123 ID = 256
   1.000851 1  203             Tx   d 8 10 FF A5 00 00 00 00 00  Length = 238244 BitCount = 122 ID = 515
   1.001108 1  300             Rx   d 8 0E C3 23 DE 0E 53 20 FF  Length = 225972 BitCount = 117 ID = 768
   1.001344 1  301             Rx   d 8 0F 23 21 90 0E 53 20 FF  Length = 225988 BitCount = 117 ID = 769
   1.001578 1  302             Rx   d 8 13 73 23 D1 0E 53 20 FF  Length = 223972 BitCount = 116 ID = 770
   1.001812 1  303             Rx   d 8 14 E3 23 20 0E 53 20 FF  Length = 223972 BitCount = 116 ID = 771
   1.002050 1  304             Rx   d 8 17 33 23 96 0E 53 20 FF  Length = 227972 BitCount = 118 ID = 772
   1.002288 1  305             Rx   d 8 1A A3 20 C5 0E 53 20 FF  Length = 227972 BitCount = 118 ID = 773
   1.002524 1  306             Rx   d 8 1F 93 20 C7 0E 53 20 FF  Length = 225988 BitCount = 117 ID = 774
   1.002762 1  307             Rx   d 8 23 93 20 DC 0E 53 20 FF  Length = 227972 BitCount = 118 ID = 775
   1.003008 1  308             Rx   d 8 FF FF FF FF FF 53 6F F8  Length = 235972 BitCount = 122 ID = 776
   1.003250 1  309             Rx   d 8 FF FF FF FF FF 53 6F F9  Length = 231972 BitCount = 120 ID = 777
   1.003503 1  380             Rx   d 8 00 00 29 00 3B FF 00 00  Length = 241988 BitCount = 125 ID = 896
   1.003753 1  381             Rx   d 8 00 00 00 00 00 03 00 05  Length = 239972 BitCount = 124 ID = 897
   1.003991 1  382             Rx   d 8 2F B0 13 81 0C D5 04 AA  Length = 227972 BitCount = 118 ID = 898
   1.004239 1  383             Rx   d 8 00 00 00 00 00 00 2A 00  Length = 237972 BitCount = 123 ID = 899
   1.004487 1  384             Rx   d 8 00 00 00 3E 00 3E 00 3D  Length = 237972 BitCount = 123 ID = 900
   1.004729 1  385             Rx   d 8 00 3B 00 3B 00 3B 00 3B  Length = 231988 BitCount = 120 ID = 901
   1.004973 1  386             Rx   d 8 00 3B 00 37 00 00 00 00  Length = 233972 BitCount = 121 ID = 902
   1.005211 1  387             Rx   d 8 07 1E 03 EC 02 17 00 00  Length = 227972 BitCount = 118 ID = 903
   1.005461 1  388             Rx   d 8 27 10 2F 00 2F 00 00 00  Length = 239972 BitCount = 124 ID = 904
   1.005711 1  389             Rx   d 8 00 00 00 00 00 00 00 00  Length = 239972 BitCount = 124 ID = 905
   1.005962 1  38A             Rx   d 8 00 00 00 00 00 00 00 00  Length = 239972 BitCount = 124 ID = 906
   1.006214 1  38B             Rx   d 8 00 00 00 00 00 00 00 00  Length = 241972 BitCount = 125 ID = 907
   1.006466 1  38C             Rx   d 8 00 00 00 00 00 00 00 00  Length = 241972 BitCount = 125 ID = 908
   1.006716 1  38D             Rx   d 8 00 00 00 00 00 00 00 00  Length = 239972 BitCount = 124 ID = 909
   1.006966 1  38E             Rx   d 8 00 00 00 00 00 00 00 00  Length = 239988 BitCount = 124 ID = 910
   1.007216 1  38F             Rx   d 8 00 00 00 00 00 00 00 00  Length = 239972 BitCount = 124 ID = 911
   1.007466 1  3FF             Rx   d 8 00 00 00 00 00 53 00 00  Length = 239972 BitCount = 124 ID = 1023
   1.007698 1  390             Rx   d 8 05 4C 4D 54 65 6D 70 00  Length = 221972 BitCount = 115 ID = 912
   1.007942 1  621             Rx   d 8 10 EF BE 00 00 53 00 00  Length = 233972 BitCount = 121 ID = 1569
   1.008190 1  622             Rx   d 8 10 00 00 00 00 53 00 00  Length = 237972 BitCount = 123 ID = 1570
   1.008429 1  625             Rx   d 8 04 4C F1 00 00 53 00 00  Length = 227972 BitCount = 118 ID = 1573
   1.008661 1  400             Rx   d 8 FF A5 24 0B 51 53 AE F6  Length = 221972 BitCount = 115 ID = 1024
   1.026768 1  Statistic: D 67 R 0 XD 0 XR 0 E 0 O 0 B 1.54%
   1.501115 1  204             Tx   d 8 20 FC F8 00 00 00 00 00  Length = 246259 BitCount = 126 ID = 516
   1.501377 1  300             Rx   d 8 05 93 22 D8 0E F4 20 FF  Length = 225988 BitCount = 117 ID = 768
   1.501613 1  301             Rx   d 8 0F 63 20 4F 0E F4 20 FF  Length = 225972 BitCount = 117 ID = 769
   1.501851 1  302             Rx   d 8 13 23 23 E8 0E F4 20 FF  Length = 227972 BitCount = 118 ID = 770
   1.502091 1  303             Rx   d 8 16 D3 23 7E 0E F4 20 FF  Length = 229972 BitCount = 119 ID = 771
   1.502329 1  304             Rx   d 8 1A 73 23 54 0E F4 20 FF  Length = 227972 BitCount = 118 ID = 772
   1.502566 1  305             Rx   d 8 1E A3 23 54 0E F4 20 FF  Length = 225988 BitCount = 117 ID = 773
   1.502806 1  306             Rx   d 8 1E A3 20 F4 0E F4 20 FF  Length = 229972 BitCount = 119 ID = 774
   1.503038 1  307             Rx   d 8 21 B3 23 A1 0E F4 20 FF  Length = 221972 BitCount = 115 ID = 775
   1.503286 1  308             Rx   d 8 FF FF FF FF FF F4 6F F8  Length = 237972 BitCount = 123 ID = 776
   1.503528 1  309             Rx   d 8 FF FF FF FF FF F4 6F F9  Length = 231988 BitCount = 120 ID = 777
   1.503776 1  380             Rx   d 8 00 00 29 00 34 FF 00 00  Length = 237972 BitCount = 123 ID = 896
   1.504026 1  381             Rx   d 8 00 00 00 00 00 05 00 05  Length = 239972 BitCount = 124 ID = 897
   1.504260 1  382             Rx   d 8 2F DE 13 92 0C F3 04 B5  Length = 223972 BitCount = 116 ID = 898
   1.504508 1  383             Rx   d 8 00 00 00 00 00 00 2A 00  Length = 237972 BitCount = 123 ID = 899
   1.504752 1  384             Rx   d 8 00 00 00 34 00 35 00 34  Length = 233988 BitCount = 121 ID = 900
   1.504997 1  385             Rx   d 8 00 34 00 35 00 34 00 34  Length = 233972 BitCount = 121 ID = 901
   1.505241 1  386             Rx   d 8 00 33 00 37 00 00 00 00  Length = 233972 BitCount = 121 ID = 902
   1.505481 1  387             Rx   d 8 07 33 03 EF 02 1E 00 00  Length = 229972 BitCount = 119 ID = 903
   1.505731 1  388             Rx   d 8 27 10 2F 00 2F 00 00 00  Length = 239988 BitCount = 124 ID = 904
   1.505981 1  389             Rx   d 8 00 00 00 00 00 00 00 00  Length = 239972 BitCount = 124 ID = 905
   1.506231 1  38A             Rx   d 8 00 00 00 00 00 00 00 00  Length = 239972 BitCount = 124 ID = 906
   1.506483 1  38B             Rx   d 8 00 00 00 00 00 00 00 00  Length = 241972 BitCount = 125 ID = 907
   1.506735 1  38C             Rx   d 8 00 00 00 00 00 00 00 00  Length = 241972 BitCount = 125 ID = 908
   1.506985 1  38D             Rx   d 8 00 00 00 00 00 00 00 00  Length = 239972 BitCount = 124 ID = 909
   1.507235 1  38E             Rx   d 8 00 00 00 00 00 00 00 00  Length = 239972 BitCount = 124 ID = 910
   1.507486 1  38F             Rx   d 8 00 00 00 00 00 00 00 00  Length = 239972 BitCount = 124 ID = 911
   1.507736 1  3FF             Rx   d 8 00 00 00 00 00 F4 00 00  Length = 239972 BitCount = 124 ID = 1023
   1.507982 1  390             Rx   d 8 0F 2D 00 00 00 00 00 00  Length = 235988 BitCount = 122 ID = 912
   1.508226 1  621             Rx   d 8 B0 EF BE 00 00 F4 00 00  Length = 233972 BitCount = 121 ID = 1569
   1.508472 1  622             Rx   d 8 B0 00 00 00 00 F4 00 00  Length = 235972 BitCount = 122 ID = 1570
   1.508710 1  625             Rx   d 8 2C 4C F1 00 00 F4 00 00  Length = 227972 BitCount = 118 ID = 1573
   1.508956 1  400             Rx   d 8 00 00 00 0C 51 F4 1D 82  Length = 235988 BitCount = 122 ID = 1024
   2.000622 1  100             Tx   d 8 77 77 00 00 20 00 00 00  Length = 236259 BitCount = 121 ID = 256
   2.000871 1  203             Tx   d 8 20 FE DA 00 00 00 00 00  Length = 242259 BitCount = 124 ID = 515
   2.001125 1  300             Rx   d 8 0F 23 21 91 0E 93 20 FF  Length = 223972 BitCount = 116 ID = 768
   2.001363 1  301             Rx   d 8 13 83 23 D1 0E 93 20 FF  Length = 227972 BitCount = 118 ID = 769
   2.001599 1  302             Rx   d 8 14 E3 23 20 0E 93 20 FF  Length = 225988 BitCount = 117 ID = 770
   2.001833 1  303             Rx   d 8 17 23 23 96 0E 93 20 FF  Length = 223972 BitCount = 116 ID = 771
   2.002071 1  304             Rx   d 8 1A A3 20 C5 0E 93 20 FF  Length = 227972 BitCount = 118 ID = 772
   2.002307 1  305             Rx   d 8 1F 93 20 C7 0E 93 20 FF  Length = 225972 BitCount = 117 ID = 773
   2.002543 1  306             Rx   d 8 23 A3 20 DC 0E 93 20 FF  Length = 225972 BitCount = 117 ID = 774
   2.002777 1  307             Rx   d 8 25 23 23 8E 0E 93 20 FF  Length = 223972 BitCount = 116 ID = 775
   2.003023 1  308             Rx   d 8 FF FF FF FF FF 93 6F F8  Length = 235972 BitCount = 122 ID = 776
   2.003268 1  309             Rx   d 8 FF FF FF FF FF 93 6F F9  Length = 233972 BitCount = 121 ID = 777
   2.003522 1  380             Rx   d 8 00 00 29 00 3C FF 00 00  Length = 243972 BitCount = 126 ID = 896
   2.003772 1  381             Rx   d 8 00 00 00 00 00 03 00 05  Length = 239988 BitCount = 124 ID = 897
   2.004006 1  382             Rx   d 8 2F F1 13 90 0C E4 04 AA  Length = 223972 BitCount = 116 ID = 898
   2.004254 1  383             Rx   d 8 00 00 00 00 00 00 2A 00  Length = 237972 BitCount = 123 ID = 899
   2.004502 1  384             Rx   d 8 00 00 00 3E 00 3E 00 3D  Length = 237972 BitCount = 123 ID = 900
   2.004744 1  385             Rx   d 8 00 3B 00 3B 00 3B 00 3C  Length = 231972 BitCount = 120 ID = 901
   2.004988 1  386             Rx   d 8 00 3B 00 37 00 00 00 00  Length = 233988 BitCount = 121 ID = 902
   2.005226 1  387             Rx   d 8 07 2F 03 ED 02 1B 00 00  Length = 227972 BitCount = 118 ID = 903
   2.005476 1  388             Rx   d 8 27 10 2F 00 2F 00 00 00  Length = 239972 BitCount = 124 ID = 904
   2.005727 1  389             Rx   d 8 00 00 00 00 00 00 00 00  Length = 239972 BitCount = 124 ID = 905
   2.005977 1  38A             Rx   d 8 00 00 00 00 00 00 00 00  Length = 239988 BitCount = 124 ID = 906
   2.006229 1  38B             Rx   d 8 00 00 00 00 00 00 00 00  Length = 241972 BitCount = 125 ID = 907
   2.006481 1  38C             Rx   d 8 00 00 00 00 00 00 00 00  Length = 241972 BitCount = 125 ID = 908
   2.006731 1  38D             Rx   d 8 00 00 00 00 00 00 00 00  Length = 239972 BitCount = 124 ID = 909
   2.006981 1  38E             Rx   d 8 00 00 00 00 00 00 00 00  Length = 239972 BitCount = 124 ID = 910
   2.007231 1  38F             Rx   d 8 00 00 00 00 00 00 00 00  Length = 239988 BitCount = 124 ID = 911
   2.007481 1  3FF             Rx   d 8 00 00 00 00 00 93 00 00  Length = 239972 BitCount = 124 ID = 1023
   2.007731 1  390             Rx   d 8 19 00 00 00 00 00 00 00  Length = 239972 BitCount = 124 ID = 912
   2.007973 1  621             Rx   d 8 60 EF BE 00 00 93 00 00  Length = 231972 BitCount = 120 ID = 1569
   2.008218 1  622             Rx   d 8 60 00 00 00 00 93 00 00  Length = 233988 BitCount = 121 ID = 1570
   2.008458 1  625             Rx   d 8 18 4C F1 00 00 93 00 00  Length = 229972 BitCount = 119 ID = 1573
   2.008696 1  400             Rx   d 8 1F 00 20 23 51 93 43 C8  Length = 227972 BitCount = 118 ID = 1024
   2.026769 1  Statistic: D 67 R 0 XD 0 XR 0 E 0 O 0 B 1.62%
   2.500738 1  204             Tx   d 8 30 00 00 00 00 00 00 00  Length = 246247 BitCount = 126 ID = 516
   2.501000 1  300             Rx   d 8 06 93 22 D0 0E 34 20 FF  Length = 229972 BitCount = 119 ID = 768
   2.501236 1  301             Rx   d 8 0F 63 20 4F 0E 34 20 FF  Length = 225972 BitCount = 117 ID = 769
   2.501472 1  302             Rx   d 8 13 23 23 E8 0E 34 20 FF  Length = 225972 BitCount = 117 ID = 770
   2.501708 1  303             Rx   d 8 16 D3 23 7C 0E 34 20 FF  Length = 225972 BitCount = 117 ID = 771
   2.501946 1  304             Rx   d 8 1A 73 23 54 0E 34 20 FF  Length = 227988 BitCount = 118 ID = 772
   2.502185 1  305             Rx   d 8 1E B3 23 54 0E 34 20 FF  Length = 227972 BitCount = 118 ID = 773
   2.502423 1  306             Rx   d 8 1E B3 20 F3 0E 34 20 FF  Length = 227972 BitCount = 118 ID = 774
   2.502659 1  307             Rx   d 8 21 A3 23 A2 0E 34 20 FF  Length = 225972 BitCount = 117 ID = 775
   2.502905 1  308             Rx   d 8 FF FF FF FF FF 34 6F F8  Length = 235988 BitCount = 122 ID = 776
   2.503147 1  309             Rx   d 8 FF FF FF FF FF 34 6F F9  Length = 231972 BitCount = 120 ID = 777
   2.503395 1  380             Rx   d 8 00 00 29 00 34 FF 00 00  Length = 237972 BitCount = 123 ID = 896
   2.503645 1  381             Rx   d 8 00 00 00 00 00 05 00 05  Length = 239972 BitCount = 124 ID = 897
   2.503881 1  382             Rx   d 8 2F 82 13 73 0C F3 04 B5  Length = 225972 BitCount = 117 ID = 898
   2.504129 1  383             Rx   d 8 00 00 00 00 00 00 2A 00  Length = 237972 BitCount = 123 ID = 899
   2.504373 1  384             Rx   d 8 00 00 00 34 00 35 00 34  Length = 233972 BitCount = 121 ID = 900
   2.504616 1  385             Rx   d 8 00 33 00 35 00 34 00 34  Length = 231972 BitCount = 120 ID = 901
   2.504860 1  386             Rx   d 8 00 33 00 37 00 00 00 00  Length = 233972 BitCount = 121 ID = 902
   2.505098 1  387             Rx   d 8 07 1E 03 EA 02 18 00 00  Length = 227988 BitCount = 118 ID = 903
   2.505348 1  388             Rx   d 8 27 10 2F 00 2F 00 00 00  Length = 239972 BitCount = 124 ID = 904
   2.505598 1  389             Rx   d 8 00 00 00 00 00 00 00 00  Length = 239972 BitCount = 124 ID = 905
   2.505848 1  38A             Rx   d 8 00 00 00 00 00 00 00 00  Length = 239972 BitCount = 124 ID = 906
   2.506100 1  38B             Rx   d 8 00 00 00 00 00 00 00 00  Length = 241988 BitCount = 125 ID = 907
   2.506352 1  38C             Rx   d 8 00 00 00 00 00 00 00 00  Length = 241972 BitCount = 125 ID = 908
   2.506602 1  38D             Rx   d 8 00 00 00 00 00 00 00 00  Length = 239972 BitCount = 124 ID = 909
   2.506852 1  38E             Rx   d 8 00 00 00 00 00 00 00 00  Length = 239972 BitCount = 124 ID = 910
   2.507103 1  38F             Rx   d 8 00 00 00 00 00 00 00 00  Length = 239972 BitCount = 124 ID = 911
   2.507355 1  3FF             Rx   d 8 00 00 00 00 00 34 00 00  Length = 241988 BitCount = 125 ID = 1023
   2.507603 1  390             Rx   d 8 23 2D 00 00 00 00 00 00  Length = 237972 BitCount = 123 ID = 912
   2.507847 1  621             Rx   d 8 10 EF BE 00 00 34 00 00  Length = 233972 BitCount = 121 ID = 1569
   2.508093 1  622             Rx   d 8 10 00 00 00 00 34 00 00  Length = 235972 BitCount = 122 ID = 1570
   2.508333 1  625             Rx   d 8 04 4C F1 00 00 34 00 00  Length = 229988 BitCount = 119 ID = 1573
   2.508571 1  400             Rx   d 8 2C 18 00 2F 51 34 BE 39  Length = 227972 BitCount = 118 ID = 1024
   3.001065 1  100             Tx   d 8 77 77 00 00 30 00 00 00  Length = 238244 BitCount = 122 ID = 256
   3.001318 1  203             Tx   d 8 30 00 00 00 00 00 00 00  Length = 246247 BitCount = 126 ID = 515
   3.001574 1  300             Rx   d 8 0E C3 23 DE 0E D3 20 FF  Length = 225972 BitCount = 117 ID = 768
   3.001808 1  301             Rx   d 8 0F 23 21 91 0E D3 20 FF  Length = 223972 BitCount = 116 ID = 769
   3.002044 1  302             Rx   d 8 13 83 23 D1 0E D3 20 FF  Length = 225988 BitCount = 117 ID = 770
   3.002278 1  303             Rx   d 8 14 E3 23 20 0E D3 20 FF  Length = 223972 BitCount = 116 ID = 771
   3.002514 1  304             Rx   d 8 17 23 23 96 0E D3 20 FF  Length = 225972 BitCount = 117 ID = 772
   3.002752 1  305             Rx   d 8 1A A3 20 C5 0E D3 20 FF  Length = 227972 BitCount = 118 ID = 773
   3.002988 1  306             Rx   d 8 1F 93 20 C7 0E D3 20 FF  Length = 225988 BitCount = 117 ID = 774
   3.003226 1  307             Rx   d 8 23 A3 20 DD 0E D3 20 FF  Length = 227972 BitCount = 118 ID = 775
   3.003472 1  308             Rx   d 8 FF FF FF FF FF D3 6F F8  Length = 235972 BitCount = 122 ID = 776
   3.003715 1  309             Rx   d 8 FF FF FF FF FF D3 6F F9  Length = 231972 BitCount = 120 ID = 777
   3.003969 1  380             Rx   d 8 00 00 29 00 3C FF 00 00  Length = 243972 BitCount = 126 ID = 896
   3.004219 1  381             Rx   d 8 00 00 00 00 00 03 00 05  Length = 239988 BitCount = 124 ID = 897
   3.004453 1  382             Rx   d 8 2F B0 13 7B 0C E4 04 AA  Length = 223972 BitCount = 116 ID = 898
   3.004701 1  383             Rx   d 8 00 00 00 00 00 00 2A 00  Length = 237972 BitCount = 123 ID = 899
   3.004949 1  384             Rx   d 8 00 00 00 3F 00 3E 00 3D  Length = 237972 BitCount = 123 ID = 900
   3.005191 1  385             Rx   d 8 00 3B 00 3B 00 3B 00 3C  Length = 231988 BitCount = 120 ID = 901
   3.005435 1  386             Rx   d 8 00 3B 00 37 00 00 00 00  Length = 233972 BitCount = 121 ID = 902
   3.005673 1  387             Rx   d 8 07 2A 03 E8 02 1A 00 00  Length = 227972 BitCount = 118 ID = 903
   3.005923 1  388             Rx   d 8 27 10 2F 00 2F 00 00 00  Length = 239972 BitCount = 124 ID = 904
   3.006174 1  389             Rx   d 8 00 00 00 00 00 00 00 00  Length = 239972 BitCount = 124 ID = 905
   3.006424 1  38A             Rx   d 8 00 00 00 00 00 00 00 00  Length = 239988 BitCount = 124 ID = 906
   3.006676 1  38B             Rx   d 8 00 00 00 00 00 00 00 00  Length = 241972 BitCount = 125 ID = 907
   3.006928 1  38C             Rx   d 8 00 00 00 00 00 00 00 00  Length = 241972 BitCount = 125 ID = 908
   3.007178 1  38D             Rx   d 8 00 00 00 00 00 00 00 00  Length = 239972 BitCount = 124 ID = 909
   3.007428 1  38E             Rx   d 8 00 00 00 00 00 00 00 00  Length = 239988 BitCount = 124 ID = 910
   3.007678 1  38F             Rx   d 8 00 00 00 00 00 00 00 00  Length = 239972 BitCount = 124 ID = 911
   3.007928 1  3FF             Rx   d 8 00 00 00 00 00 D3 00 00  Length = 239972 BitCount = 124 ID = 1023
   3.008176 1  390             Rx   d 8 2D 2D 00 00 00 00 00 00  Length = 237972 BitCount = 123 ID = 912
   3.008416 1  621             Rx   d 8 B0 EF BE 00 00 D3 00 00  Length = 229972 BitCount = 119 ID = 1569
   3.008661 1  622             Rx   d 8 B0 00 00 00 00 D3 00 00  Length = 233988 BitCount = 121 ID = 1570
   3.008899 1  625             Rx   d 8 2C 4C F1 00 00 D3 00 00  Length = 227972 BitCount = 118 ID = 1573
   3.009143 1  400             Rx   d 8 00 00 00 00 51 D3 F4 A1  Length = 233972 BitCount = 121 ID = 1024
   3.026769 1  Statistic: D 67 R 0 XD 0 XR 0 E 0 O 0 B 1.62%
   3.501079 1  204             Tx   d 8 40 00 00 00 00 00 00 00  Length = 244244 BitCount = 125 ID = 516
   3.501343 1  300             Rx   d 8 05 A3 22 EF 0E 74 20 FF  Length = 227988 BitCount = 118 ID = 768
   3.501581 1  301             Rx   d 8 0F 63 20 4F 0E 74 20 FF  Length = 227972 BitCount = 118 ID = 769
   3.501819 1  302             Rx   d 8 13 23 23 E8 0E 74 20 FF  Length = 227972 BitCount = 118 ID = 770
   3.502055 1  303             Rx   d 8 16 E3 23 7B 0E 74 20 FF  Length = 225972 BitCount = 117 ID = 771
   3.502293 1  304             Rx   d 8 1A 63 23 54 0E 74 20 FF  Length = 227972 BitCount = 118 ID = 772
   3.502530 1  305             Rx   d 8 1E B3 23 54 0E 74 20 FF  Length = 225988 BitCount = 117 ID = 773
   3.502770 1  306             Rx   d 8 1E B3 20 F1 0E 74 20 FF  Length = 229972 BitCount = 119 ID = 774
   3.503006 1  307             Rx   d 8 21 93 23 A0 0E 74 20 FF  Length = 225972 BitCount = 117 ID = 775
   3.503254 1  308             Rx   d 8 FF FF FF FF FF 74 6F F8  Length = 237972 BitCount = 123 ID = 776
   3.503496 1  309             Rx   d 8 FF FF FF FF FF 74 6F F9  Length = 231988 BitCount = 120 ID = 777
   3.503746 1  380             Rx   d 8 00 00 29 00 35 FF 00 00  Length = 239972 BitCount = 124 ID = 896
   3.503996 1  381             Rx   d 8 00 00 00 00 00 05 00 05  Length = 239972 BitCount = 124 ID = 897
   3.504228 1  382             Rx   d 8 2F D5 13 93 0C E4 04 B5  Length = 221972 BitCount = 115 ID = 898
   3.504476 1  383             Rx   d 8 00 00 00 00 00 00 2A 00  Length = 237972 BitCount = 123 ID = 899
   3.504721 1  384             Rx   d 8 00 00 00 34 00 35 00 34  Length = 233988 BitCount = 121 ID = 900
   3.504961 1  385             Rx   d 8 00 34 00 35 00 35 00 35  Length = 229972 BitCount = 119 ID = 901
   3.505205 1  386             Rx   d 8 00 33 00 37 00 00 00 00  Length = 233972 BitCount = 121 ID = 902
   3.505447 1  387             Rx   d 8 07 2D 03 F0 02 1C 00 00  Length = 231972 BitCount = 120 ID = 903
   3.505697 1  388             Rx   d 8 27 10 2F 00 2F 00 00 00  Length = 239988 BitCount = 124 ID = 904
   3.505947 1  389             Rx   d 8 00 00 00 00 00 00 00 00  Length = 239972 BitCount = 124 ID = 905
   3.506197 1  38A             Rx   d 8 00 00 00 00 00 00 00 00  Length = 239972 BitCount = 124 ID = 906
   3.506449 1  38B             Rx   d 8 00 00 00 00 00 00 00 00  Length = 241972 BitCount = 125 ID = 907
   3.506701 1  38C             Rx   d 8 00 00 00 00 00 00 00 00  Length = 241972 BitCount = 125 ID = 908
   3.506951 1  38D             Rx   d 8 00 00 00 00 00 00 00 00  Length = 239972 BitCount = 124 ID = 909
   3.507202 1  38E             Rx   d 8 00 00 00 00 00 00 00 00  Length = 239972 BitCount = 124 ID = 910
   3.507452 1  38F             Rx   d 8 00 00 00 00 00 00 00 00  Length = 239972 BitCount = 124 ID = 911
   3.507704 1  3FF             Rx   d 8 00 00 00 00 00 74 00 00  Length = 241972 BitCount = 125 ID = 1023
   3.507954 1  390             Rx   d 8 37 00 00 00 00 00 00 00  Length = 239988 BitCount = 124 ID = 912
   3.508196 1  621             Rx   d 8 60 EF BE 00 00 74 00 00  Length = 231972 BitCount = 120 ID = 1569
   3.508440 1  622             Rx   d 8 60 00 00 00 00 74 00 00  Length = 233972 BitCount = 121 ID = 1570
   3.508680 1  625             Rx   d 8 18 4C F1 00 00 74 00 00  Length = 229972 BitCount = 119 ID = 1573
   3.508912 1  400             Rx   d 8 DD 50 27 36 51 74 5A 28  Length = 221988 BitCount = 115 ID = 1024
   4.001032 1  100             Tx   d 8 77 77 00 00 40 00 00 00  Length = 238259 BitCount = 122 ID = 256
   4.001283 1  203             Tx   d 8 40 00 00 00 00 00 00 00  Length = 244259 BitCount = 125 ID = 515
   4.001539 1  300             Rx   d 8 0E B3 23 DE 0E 13 20 FF  Length = 225972 BitCount = 117 ID = 768
   4.001779 1  301             Rx   d 8 0F 23 21 92 0E 13 20 FF  Length = 229972 BitCount = 119 ID = 769
   4.002015 1  302             Rx   d 8 13 83 23 D1 0E 13 20 FF  Length = 225972 BitCount = 117 ID = 770
   4.002249 1  303             Rx   d 8 14 E3 23 20 0E 13 20 FF  Length = 223988 BitCount = 116 ID = 771
   4.002485 1  304             Rx   d 8 17 23 23 96 0E 13 20 FF  Length = 225972 BitCount = 117 ID = 772
   4.002723 1  305             Rx   d 8 1A A3 20 C5 0E 13 20 FF  Length = 227972 BitCount = 118 ID = 773
   4.002959 1  306             Rx   d 8 1F 93 20 C7 0E 13 20 FF  Length = 225972 BitCount = 117 ID = 774
   4.003197 1  307             Rx   d 8 23 A3 20 DC 0E 13 20 FF  Length = 227972 BitCount = 118 ID = 775
   4.003444 1  308             Rx   d 8 FF FF FF FF FF 13 6F F8  Length = 235988 BitCount = 122 ID = 776
   4.003686 1  309             Rx   d 8 FF FF FF FF FF 13 6F F9  Length = 231972 BitCount = 120 ID = 777
   4.003934 1  380             Rx   d 8 00 00 2A 00 3C FF 00 00  Length = 237972 BitCount = 123 ID = 896
   4.004184 1  381             Rx   d 8 00 00 00 00 00 03 00 05  Length = 239972 BitCount = 124 ID = 897
   4.004416 1  382             Rx   d 8 2F A7 13 73 0C E4 04 AA  Length = 221972 BitCount = 115 ID = 898
   4.004666 1  383             Rx   d 8 00 00 00 00 00 00 2B 00  Length = 239972 BitCount = 124 ID = 899
   4.004920 1  384             Rx   d 8 00 00 00 3F 00 3D 00 3D  Length = 243972 BitCount = 126 ID = 900
   4.005160 1  385             Rx   d 8 00 3C 00 3B 00 3B 00 3B  Length = 229972 BitCount = 119 ID = 901
   4.005404 1  386             Rx   d 8 00 3B 00 37 00 00 00 00  Length = 233972 BitCount = 121 ID = 902
   4.005644 1  387             Rx   d 8 07 2A 03 E7 02 1A 00 00  Length = 229988 BitCount = 119 ID = 903
   4.005895 1  388             Rx   d 8 27 10 2F 00 2F 00 00 00  Length = 239972 BitCount = 124 ID = 904
   4.006145 1  389             Rx   d 8 00 00 00 00 00 00 00 00  Length = 239972 BitCount = 124 ID = 905
   4.006395 1  38A             Rx   d 8 00 00 00 00 00 00 00 00  Length = 239972 BitCount = 124 ID = 906
   4.006647 1  38B             Rx   d 8 00 00 00 00 00 00 00 00  Length = 241972 BitCount = 125 ID = 907
   4.006899 1  38C             Rx   d 8 00 00 00 00 00 00 00 00  Length = 241972 BitCount = 125 ID = 908
   4.007149 1  38D             Rx   d 8 00 00 00 00 00 00 00 00  Length = 239972 BitCount = 124 ID = 909
   4.007399 1  38E             Rx   d 8 00 00 00 00 00 00 00 00  Length = 239972 BitCount = 124 ID = 910
   4.007649 1  38F             Rx   d 8 00 00 00 00 00 00 00 00  Length = 239972 BitCount = 124 ID = 911
   4.007901 1  3FF             Rx   d 8 00 00 00 00 00 13 00 00  Length = 241988 BitCount = 125 ID = 1023
   4.008131 1  390             Rx   d 8 41 43 68 69 70 52 65 76  Length = 219972 BitCount = 114 ID = 912
   4.008376 1  621             Rx   d 8 10 EF BE 00 00 13 00 00  Length = 233972 BitCount = 121 ID = 1569
   4.008624 1  622             Rx   d 8 10 00 00 00 00 13 00 00  Length = 237972 BitCount = 123 ID = 1570
   4.008862 1  625             Rx   d 8 04 4C F1 00 00 13 00 00  Length = 227972 BitCount = 118 ID = 1573
   4.009102 1  400             Rx   d 8 00 00 00 0C 51 13 CD AE  Length = 229988 BitCount = 119 ID = 1024
   4.026769 1  Statistic: D 67 R 0 XD 0 XR 0 E 0 O 0 B 1.62%
   4.500982 1  204             Tx   d 8 50 00 00 00 00 00 00 00  Length = 244259 BitCount = 125 ID = 516
   4.501242 1  300             Rx   d 8 06 83 22 D3 0E B4 20 FF  Length = 227988 BitCount = 118 ID = 768
   4.501478 1  301             Rx   d 8 0F 63 20 4F 0E B4 20 FF  Length = 225972 BitCount = 117 ID = 769
   4.501714 1  302             Rx   d 8 13 23 23 E8 0E B4 20 FF  Length = 225972 BitCount = 117 ID = 770
   4.501954 1  303             Rx   d 8 16 E3 23 7F 0E B4 20 FF  Length = 229972 BitCount = 119 ID = 771
   4.502193 1  304             Rx   d 8 1A 63 23 54 0E B4 20 FF  Length = 227988 BitCount = 118 ID = 772
   4.502431 1  305             Rx   d 8 1E B3 23 54 0E B4 20 FF  Length = 227972 BitCount = 118 ID = 773
   4.502671 1  306             Rx   d 8 1E B3 20 F5 0E B4 20 FF  Length = 229972 BitCount = 119 ID = 774
   4.502903 1  307             Rx   d 8 21 A3 23 A3 0E B4 20 FF  Length = 221972 BitCount = 115 ID = 775
   4.503145 1  308             Rx   d 8 FF FF FF FF FF B4 6C 70  Length = 231972 BitCount = 120 ID = 776
   4.503387 1  309             Rx   d 8 FF FF FF FF FF B4 6F F9  Length = 231988 BitCount = 120 ID = 777
   4.503637 1  380             Rx   d 8 00 00 29 00 35 FF 00 00  Length = 239972 BitCount = 124 ID = 896
   4.503887 1  381             Rx   d 8 00 00 00 00 00 05 00 05  Length = 239972 BitCount = 124 ID = 897
   4.504125 1  382             Rx   d 8 2F 94 13 76 0C F3 04 B5  Length = 227972 BitCount = 118 ID = 898
   4.504373 1  383             Rx   d 8 00 00 00 00 00 00 2A 00  Length = 237988 BitCount = 123 ID = 899
   4.504618 1  384             Rx   d 8 00 00 00 35 00 35 00 34  Length = 233972 BitCount = 121 ID = 900
   4.504860 1  385             Rx   d 8 00 34 00 35 00 34 00 35  Length = 231972 BitCount = 120 ID = 901
   4.505104 1  386             Rx   d 8 00 33 00 37 00 00 00 00  Length = 233972 BitCount = 121 ID = 902
   4.505342 1  387             Rx   d 8 07 2E 03 E9 02 1C 00 00  Length = 227972 BitCount = 118 ID = 903
   4.505592 1  388             Rx   d 8 27 10 2F 00 2F 00 00 00  Length = 239972 BitCount = 124 ID = 904
   4.505842 1  389             Rx   d 8 00 00 00 00 00 00 00 00  Length = 239972 BitCount = 124 ID = 905
   4.506092 1  38A             Rx   d 8 00 00 00 00 00 00 00 00  Length = 239972 BitCount = 124 ID = 906
   4.506344 1  38B             Rx   d 8 00 00 00 00 00 00 00 00  Length = 241972 BitCount = 125 ID = 907
   4.506596 1  38C             Rx   d 8 00 00 00 00 00 00 00 00  Length = 241988 BitCount = 125 ID = 908
   4.506846 1  38D             Rx   d 8 00 00 00 00 00 00 00 00  Length = 239972 BitCount = 124 ID = 909
   4.507097 1  38E             Rx   d 8 00 00 00 00 00 00 00 00  Length = 239972 BitCount = 124 ID = 910
   4.507347 1  38F             Rx   d 8 00 00 00 00 00 00 00 00  Length = 239972 BitCount = 124 ID = 911
   4.507597 1  3FF             Rx   d 8 00 00 00 00 00 B4 00 00  Length = 239988 BitCount = 124 ID = 1023
   4.507847 1  390             Rx   d 8 4B 00 00 00 00 00 00 00  Length = 239972 BitCount = 124 ID = 912
   4.508089 1  621             Rx   d 8 B0 EF BE 00 00 B4 00 00  Length = 231972 BitCount = 120 ID = 1569
   4.508335 1  622             Rx   d 8 B0 00 00 00 00 B4 00 00  Length = 235972 BitCount = 122 ID = 1570
   4.508573 1  625             Rx   d 8 2C 4C F1 00 00 B4 00 00  Length = 227972 BitCount = 118 ID = 1573
   4.508811 1  400             Rx   d 8 80 80 24 0B 51 B4 95 29  Length = 227988 BitCount = 118 ID = 1024
   5.000964 1  100             Tx   d 8 77 77 00 00 50 00 00 00  Length = 238259 BitCount = 122 ID = 256
   5.001212 1  203             Tx   d 8 50 00 00 00 00 00 00 00  Length = 242259 BitCount = 124 ID = 515
   5.001468 1  300             Rx   d 8 0E C3 23 DE 0E 53 20 FF  Length = 225988 BitCount = 117 ID = 768
   5.001702 1  301             Rx   d 8 0F 23 21 91 0E 53 20 FF  Length = 223972 BitCount = 116 ID = 769
   5.001940 1  302             Rx   d 8 13 83 23 D1 0E 53 20 FF  Length = 227972 BitCount = 118 ID = 770
   5.002174 1  303             Rx   d 8 14 E3 23 20 0E 53 20 FF  Length = 223972 BitCount = 116 ID = 771
   5.002410 1  304             Rx   d 8 17 23 23 97 0E 53 20 FF  Length = 225988 BitCount = 117 ID = 772
   5.002648 1  305             Rx   d 8 1A A3 20 C5 0E 53 20 FF  Length = 227972 BitCount = 118 ID = 773
   5.002888 1  306             Rx   d 8 1F 93 20 C6 0E 53 20 FF  Length = 229972 BitCount = 119 ID = 774
   5.003124 1  307             Rx   d 8 23 A3 20 DC 0E 53 20 FF  Length = 225972 BitCount = 117 ID = 775
   5.003371 1  308             Rx   d 8 FF FF FF FF FF 53 6F F8  Length = 235972 BitCount = 122 ID = 776
   5.003613 1  309             Rx   d 8 FF FF FF FF FF 53 6F F9  Length = 231988 BitCount = 120 ID = 777
   5.003861 1  380             Rx   d 8 00 00 2A 00 3C FF 00 00  Length = 237972 BitCount = 123 ID = 896
   5.004111 1  381             Rx   d 8 00 00 00 00 00 03 00 05  Length = 239972 BitCount = 124 ID = 897
   5.004347 1  382             Rx   d 8 2F D5 13 8A 0C E4 04 AA  Length = 225972 BitCount = 117 ID = 898
   5.004597 1  383             Rx   d 8 00 00 00 00 00 00 2B 00  Length = 239988 BitCount = 124 ID = 899
   5.004849 1  384             Rx   d 8 00 00 00 3F 00 3E 00 3E  Length = 241972 BitCount = 125 ID = 900
   5.005091 1  385             Rx   d 8 00 3B 00 3B 00 3B 00 3C  Length = 231972 BitCount = 120 ID = 901
   5.005337 1  386             Rx   d 8 00 3B 00 38 00 00 00 00  Length = 235972 BitCount = 122 ID = 902
   5.005577 1  387             Rx   d 8 07 2D 03 EC 02 1A 00 00  Length = 229972 BitCount = 119 ID = 903
   5.005828 1  388             Rx   d 8 27 10 2F 00 2F 00 00 00  Length = 239988 BitCount = 124 ID = 904
   5.006078 1  389             Rx   d 8 00 00 00 00 00 00 00 00  Length = 239972 BitCount = 124 ID = 905
   5.006328 1  38A             Rx   d 8 00 00 00 00 00 00 00 00  Length = 239972 BitCount = 124 ID = 906
   5.006580 1  38B             Rx   d 8 00 00 00 00 00 00 00 00  Length = 241972 BitCount = 125 ID = 907
   5.006832 1  38C             Rx   d 8 00 00 00 00 00 00 00 00  Length = 241988 BitCount = 125 ID = 908
   5.007082 1  38D             Rx   d 8 00 00 00 00 00 00 00 00  Length = 239972 BitCount = 124 ID = 909
   5.007332 1  38E             Rx   d 8 00 00 00 00 00 00 00 00  Length = 239972 BitCount = 124 ID = 910
   5.007582 1  38F             Rx   d 8 00 00 00 00 00 00 00 00  Length = 239972 BitCount = 124 ID = 911
   5.007832 1  3FF             Rx   d 8 00 00 00 00 00 53 00 00  Length = 239972 BitCount = 124 ID = 1023
   5.008083 1  390             Rx   d 8 55 00 00 00 00 00 00 00  Length = 239988 BitCount = 124 ID = 912
   5.008325 1  621             Rx   d 8 60 EF BE 00 00 53 00 00  Length = 231972 BitCount = 120 ID = 1569
   5.008571 1  622             Rx   d 8 60 00 00 00 00 53 00 00  Length = 235972 BitCount = 122 ID = 1570
   5.008809 1  625             Rx   d 8 18 4C F1 00 00 53 00 00  Length = 227972 BitCount = 118 ID = 1573
   5.009049 1  400             Rx   d 8 FF A5 00 2F 51 53 05 92  Length = 229988 BitCount = 119 ID = 1024
   5.026770 1  Statistic: D 67 R 0 XD 0 XR 0 E 0 O 0 B 1.62%
   5.500767 1  204             Tx   d 8 60 00 00 00 00 00 00 00  Length = 244259 BitCount = 125 ID = 516
   5.501027 1  300             Rx   d 8 0F 63 20 4F 0E F4 20 FF  Length = 227972 BitCount = 118 ID = 768
   5.501263 1  301             Rx   d 8 13 23 23 E8 0E F4 20 FF  Length = 225972 BitCount = 117 ID = 769
   5.501499 1  302             Rx   d 8 16 E3 23 7B 0E F4 20 FF  Length = 225972 BitCount = 117 ID = 770
   5.501733 1  303             Rx   d 8 1A 63 23 61 0E F4 20 FF  Length = 223988 BitCount = 116 ID = 771
   5.501972 1  304             Rx   d 8 1E B3 23 54 0E F4 20 FF  Length = 227972 BitCount = 118 ID = 772
   5.502210 1  305             Rx   d 8 1E B3 20 F2 0E F4 20 FF  Length = 227972 BitCount = 118 ID = 773
   5.502446 1  306             Rx   d 8 21 C3 23 A2 0E F4 20 FF  Length = 225972 BitCount = 117 ID = 774
   5.502684 1  307             Rx   d 8 24 33 23 EE 0E F4 20 FF  Length = 227988 BitCount = 118 ID = 775
   5.502932 1  308             Rx   d 8 FF FF FF FF FF F4 6F F8  Length = 237972 BitCount = 123 ID = 776
   5.503174 1  309             Rx   d 8 FF FF FF FF FF F4 6F F9  Length = 231972 BitCount = 120 ID = 777
   5.503424 1  380             Rx   d 8 00 00 29 00 35 FF 00 00  Length = 239972 BitCount = 124 ID = 896
   5.503674 1  381             Rx   d 8 00 00 00 00 00 05 00 05  Length = 239988 BitCount = 124 ID = 897
   5.503906 1  382             Rx   d 8 2F DE 13 93 0C F3 04 B5  Length = 221972 BitCount = 115 ID = 898
   5.504154 1  383             Rx   d 8 00 00 00 00 00 00 2A 00  Length = 237972 BitCount = 123 ID = 899
   5.504399 1  384             Rx   d 8 00 00 00 35 00 35 00 34  Length = 233972 BitCount = 121 ID = 900
   5.504639 1  385             Rx   d 8 00 33 00 36 00 35 00 35  Length = 229972 BitCount = 119 ID = 901
   5.504883 1  386             Rx   d 8 00 33 00 37 00 00 00 00  Length = 233988 BitCount = 121 ID = 902
   5.505123 1  387             Rx   d 8 07 33 03 F0 02 1E 00 00  Length = 229972 BitCount = 119 ID = 903
   5.505373 1  388             Rx   d 8 27 10 2F 00 2F 00 00 00  Length = 239972 BitCount = 124 ID = 904
   5.505623 1  389             Rx   d 8 00 00 00 00 00 00 00 00  Length = 239972 BitCount = 124 ID = 905
   5.505873 1  38A             Rx   d 8 00 00 00 00 00 00 00 00  Length = 239988 BitCount = 124 ID = 906
   5.506125 1  38B             Rx   d 8 00 00 00 00 00 00 00 00  Length = 241972 BitCount = 125 ID = 907
   5.506377 1  38C             Rx   d 8 00 00 00 00 00 00 00 00  Length = 241972 BitCount = 125 ID = 908
   5.506627 1  38D             Rx   d 8 00 00 00 00 00 00 00 00  Length = 239972 BitCount = 124 ID = 909
   5.506878 1  38E             Rx   d 8 00 00 00 00 00 00 00 00  Length = 239972 BitCount = 124 ID = 910
   5.507128 1  38F             Rx   d 8 00 00 00 00 00 00 00 00  Length = 239988 BitCount = 124 ID = 911
   5.507378 1  3FF             Rx   d 8 00 00 00 00 00 F4 00 00  Length = 239972 BitCount = 124 ID = 1023
   5.507630 1  390             Rx   d 8 5F 00 00 00 00 00 00 00  Length = 241972 BitCount = 125 ID = 912
   5.507872 1  621             Rx   d 8 10 EF BE 00 00 F4 00 00  Length = 231972 BitCount = 120 ID = 1569
   5.508118 1  622             Rx   d 8 10 00 00 00 00 F4 00 00  Length = 235988 BitCount = 122 ID = 1570
   5.508360 1  625             Rx   d 8 04 4C F1 00 00 F4 00 00  Length = 231972 BitCount = 120 ID = 1573
   5.508602 1  400             Rx   d 8 00 00 20 23 51 F4 E2 4F  Length = 231972 BitCount = 120 ID = 1024
   6.000710 1  100             Tx   d 8 77 77 00 00 60 00 00 00  Length = 238244 BitCount = 122 ID = 256
   6.000959 1  203             Tx   d 8 60 00 00 00 00 00 00 00  Length = 242244 BitCount = 124 ID = 515
   6.001217 1  300             Rx   d 8 0E D3 23 DE 0E 93 20 FF  Length = 225972 BitCount = 117 ID = 768
   6.001449 1  301             Rx   d 8 0F 23 21 91 0E 93 20 FF  Length = 221972 BitCount = 115 ID = 769
   6.001683 1  302             Rx   d 8 13 73 23 D1 0E 93 20 FF  Length = 223972 BitCount = 116 ID = 770
   6.001917 1  303             Rx   d 8 14 E3 23 20 0E 93 20 FF  Length = 223988 BitCount = 116 ID = 771
   6.002153 1  304             Rx   d 8 17 23 23 96 0E 93 20 FF  Length = 225972 BitCount = 117 ID = 772
   6.002389 1  305             Rx   d 8 1A A3 20 C6 0E 93 20 FF  Length = 225972 BitCount = 117 ID = 773
   6.002627 1  306             Rx   d 8 1F A3 20 C5 0E 93 20 FF  Length = 227972 BitCount = 118 ID = 774
   6.002864 1  307             Rx   d 8 23 93 20 DC 0E 93 20 FF  Length = 225972 BitCount = 117 ID = 775
   6.003110 1  308             Rx   d 8 FF FF FF FF FF 93 6F F8  Length = 235988 BitCount = 122 ID = 776
   6.003354 1  309             Rx   d 8 FF FF FF FF FF 93 6F F9  Length = 233972 BitCount = 121 ID = 777
   6.003602 1  380             Rx   d 8 00 00 2A 00 3C FF 00 00  Length = 237972 BitCount = 123 ID = 896
   6.003852 1  381             Rx   d 8 00 00 00 00 00 03 00 05  Length = 239972 BitCount = 124 ID = 897
   6.004086 1  382             Rx   d 8 2F B9 13 85 0C E4 04 AA  Length = 223988 BitCount = 116 ID = 898
   6.004336 1  383             Rx   d 8 00 00 00 00 00 00 2B 00  Length = 239972 BitCount = 124 ID = 899
   6.004584 1  384             Rx   d 8 00 00 00 3E 00 3E 00 3D  Length = 237972 BitCount = 123 ID = 900
   6.004826 1  385             Rx   d 8 00 3B 00 3B 00 3B 00 3C  Length = 231972 BitCount = 120 ID = 901
   6.005070 1  386             Rx   d 8 00 3B 00 37 00 00 00 00  Length = 233972 BitCount = 121 ID = 902
   6.005311 1  387             Rx   d 8 07 20 03 EC 02 17 00 00  Length = 229988 BitCount = 119 ID = 903
   6.005561 1  388             Rx   d 8 27 10 2F 00 2F 00 00 00  Length = 239972 BitCount = 124 ID = 904
   6.005811 1  389             Rx   d 8 00 00 00 00 00 00 00 00  Length = 239972 BitCount = 124 ID = 905
   6.006061 1  38A             Rx   d 8 00 00 00 00 00 00 00 00  Length = 239972 BitCount = 124 ID = 906
   6.006313 1  38B             Rx   d 8 00 00 00 00 00 00 00 00  Length = 241972 BitCount = 125 ID = 907
   6.006565 1  38C             Rx   d 8 00 00 00 00 00 00 00 00  Length = 241972 BitCount = 125 ID = 908
   6.006815 1  38D             Rx   d 8 00 00 00 00 00 00 00 00  Length = 239972 BitCount = 124 ID = 909
   6.007065 1  38E             Rx   d 8 00 00 00 00 00 00 00 00  Length = 239972 BitCount = 124 ID = 910
   6.007315 1  38F             Rx   d 8 00 00 00 00 00 00 00 00  Length = 239972 BitCount = 124 ID = 911
   6.007565 1  3FF             Rx   d 8 00 00 00 00 00 93 00 00  Length = 239988 BitCount = 124 ID = 1023
   6.007816 1  390             Rx   d 8 69 00 00 00 00 00 00 00  Length = 239972 BitCount = 124 ID = 912
   6.008056 1  621             Rx   d 8 B0 EF BE 00 00 93 00 00  Length = 229972 BitCount = 119 ID = 1569
   6.008300 1  622             Rx   d 8 B0 00 00 00 00 93 00 00  Length = 233972 BitCount = 121 ID = 1570
   6.008538 1  625             Rx   d 8 2C 4C F1 00 00 93 00 00  Length = 227972 BitCount = 118 ID = 1573
   6.008778 1  400             Rx   d 8 1F 00 27 36 51 93 FA 07  Length = 229972 BitCount = 119 ID = 1024
   6.026770 1  Statistic: D 67 R 0 XD 0 XR 0 E 0 O 0 B 1.62%
   6.500800 1  204             Tx   d 8 70 00 00 00 00 00 00 00  Length = 244244 BitCount = 125 ID = 516
   6.501062 1  300             Rx   d 8 05 C3 22 CE 0E 34 20 FF  Length = 229972 BitCount = 119 ID = 768
   6.501298 1  301             Rx   d 8 0F 63 20 4F 0E 34 20 FF  Length = 225972 BitCount = 117 ID = 769
   6.501534 1  302             Rx   d 8 13 23 23 E8 0E 34 20 FF  Length = 225972 BitCount = 117 ID = 770
   6.501771 1  303             Rx   d 8 16 E3 23 7C 0E 34 20 FF  Length = 225972 BitCount = 117 ID = 771
   6.502009 1  304             Rx   d 8 1A 73 23 54 0E 34 20 FF  Length = 227972 BitCount = 118 ID = 772
   6.502249 1  305             Rx   d 8 1E B3 20 F1 0E 34 20 FF  Length = 229972 BitCount = 119 ID = 773
   6.502485 1  306             Rx   d 8 1E C3 23 54 0E 34 20 FF  Length = 225972 BitCount = 117 ID = 774
   6.502721 1  307             Rx   d 8 21 B3 23 A2 0E 34 20 FF  Length = 225988 BitCount = 117 ID = 775
   6.502967 1  308             Rx   d 8 FF FF FF FF FF 34 6F F8  Length = 235972 BitCount = 122 ID = 776
   6.503209 1  309             Rx   d 8 FF FF FF FF FF 34 6F F9  Length = 231972 BitCount = 120 ID = 777
   6.503459 1  380             Rx   d 8 00 00 29 00 35 FF 00 00  Length = 239972 BitCount = 124 ID = 896
   6.503709 1  381             Rx   d 8 00 00 00 00 00 05 00 05  Length = 239988 BitCount = 124 ID = 897
   6.503947 1  382             Rx   d 8 2F D5 13 92 0C E4 04 B5  Length = 227972 BitCount = 118 ID = 898
   6.504196 1  383             Rx   d 8 00 00 00 00 00 00 2A 00  Length = 237972 BitCount = 123 ID = 899
   6.504442 1  384             Rx   d 8 00 00 00 35 00 36 00 34  Length = 235972 BitCount = 122 ID = 900
   6.504684 1  385             Rx   d 8 00 34 00 36 00 35 00 35  Length = 231972 BitCount = 120 ID = 901
   6.504928 1  386             Rx   d 8 00 33 00 37 00 00 00 00  Length = 233988 BitCount = 121 ID = 902
   6.505170 1  387             Rx   d 8 07 33 03 EF 02 1F 00 00  Length = 231972 BitCount = 120 ID = 903
   6.505420 1  388             Rx   d 8 27 10 2F 00 2F 00 00 00  Length = 239972 BitCount = 124 ID = 904
   6.505670 1  389             Rx   d 8 00 00 00 00 00 00 00 00  Length = 239972 BitCount = 124 ID = 905
   6.505920 1  38A             Rx   d 8 00 00 00 00 00 00 00 00  Length = 239988 BitCount = 124 ID = 906
   6.506172 1  38B             Rx   d 8 00 00 00 00 00 00 00 00  Length = 241972 BitCount = 125 ID = 907
   6.506424 1  38C             Rx   d 8 00 00 00 00 00 00 00 00  Length = 241972 BitCount = 125 ID = 908
   6.506675 1  38D             Rx   d 8 00 00 00 00 00 00 00 00  Length = 239972 BitCount = 124 ID = 909
   6.506925 1  38E             Rx   d 8 00 00 00 00 00 00 00 00  Length = 239972 BitCount = 124 ID = 910
   6.507175 1  38F             Rx   d 8 00 00 00 00 00 00 00 00  Length = 239972 BitCount = 124 ID = 911
   6.507427 1  3FF             Rx   d 8 00 00 00 00 00 34 00 00  Length = 241972 BitCount = 125 ID = 1023
   6.507675 1  390             Rx   d 8 73 00 00 00 00 00 00 00  Length = 237972 BitCount = 123 ID = 912
   6.507919 1  621             Rx   d 8 60 EF BE 00 00 34 00 00  Length = 233972 BitCount = 121 ID = 1569
   6.508163 1  622             Rx   d 8 60 00 00 00 00 34 00 00  Length = 233988 BitCount = 121 ID = 1570
   6.508401 1  625             Rx   d 8 18 4C F1 00 00 34 00 00  Length = 227972 BitCount = 118 ID = 1573
   6.508643 1  400             Rx   d 8 2C 18 00 00 51 34 54 BE  Length = 231972 BitCount = 120 ID = 1024
   7.000878 1  100             Tx   d 8 77 77 00 00 70 00 00 00  Length = 238244 BitCount = 122 ID = 256
   7.001128 1  203             Tx   d 8 70 00 00 00 00 00 00 00  Length = 244244 BitCount = 125 ID = 515
   7.001390 1  300             Rx   d 8 0E D3 23 DF 0E D3 20 FF  Length = 229988 BitCount = 119 ID = 768
   7.001624 1  301             Rx   d 8 0F 23 21 91 0E D3 20 FF  Length = 223972 BitCount = 116 ID = 769
   7.001860 1  302             Rx   d 8 13 83 23 D1 0E D3 20 FF  Length = 225972 BitCount = 117 ID = 770
   7.002094 1  303             Rx   d 8 14 E3 23 20 0E D3 20 FF  Length = 223972 BitCount = 116 ID = 771
   7.002330 1  304             Rx   d 8 17 23 23 96 0E D3 20 FF  Length = 225972 BitCount = 117 ID = 772
   7.002566 1  305             Rx   d 8 1A A3 20 C6 0E D3 20 FF  Length = 225988 BitCount = 117 ID = 773
   7.002808 1  306             Rx   d 8 1F 93 20 C6 0E D3 20 FF  Length = 231972 BitCount = 120 ID = 774
   7.003047 1  307             Rx   d 8 23 A3 20 DD 0E D3 20 FF  Length = 227972 BitCount = 118 ID = 775
   7.003293 1  308             Rx   d 8 FF FF FF FF FF D3 6F F8  Length = 235972 BitCount = 122 ID = 776
   7.003535 1  309             Rx   d 8 FF FF FF FF FF D3 6F F9  Length = 231988 BitCount = 120 ID = 777
   7.003783 1  380             Rx   d 8 00 00 2A 00 3C FF 00 00  Length = 237972 BitCount = 123 ID = 896
   7.004033 1  381             Rx   d 8 00 00 00 00 00 03 00 05  Length = 239972 BitCount = 124 ID = 897
   7.004265 1  382             Rx   d 8 2F DE 13 8D 0C E4 04 AA  Length = 221972 BitCount = 115 ID = 898
   7.004515 1  383             Rx   d 8 00 00 00 00 00 00 2B 00  Length = 239972 BitCount = 124 ID = 899
   7.004767 1  384             Rx   d 8 00 00 00 3F 00 3E 00 3E  Length = 241988 BitCount = 125 ID = 900
   7.005009 1  385             Rx   d 8 00 3C 00 3B 00 3B 00 3C  Length = 231972 BitCount = 120 ID = 901
   7.005255 1  386             Rx   d 8 00 3B 00 38 00 00 00 00  Length = 235972 BitCount = 122 ID = 902
   7.005494 1  387             Rx   d 8 07 2E 03 EC 02 1B 00 00  Length = 227972 BitCount = 118 ID = 903
   7.005744 1  388             Rx   d 8 27 10 2F 00 2F 00 00 00  Length = 239988 BitCount = 124 ID = 904
   7.005994 1  389             Rx   d 8 00 00 00 00 00 00 00 00  Length = 239972 BitCount = 124 ID = 905
   7.006244 1  38A             Rx   d 8 00 00 00 00 00 00 00 00  Length = 239972 BitCount = 124 ID = 906
   7.006496 1  38B             Rx   d 8 00 00 00 00 00 00 00 00  Length = 241972 BitCount = 125 ID = 907
   7.006748 1  38C             Rx   d 8 00 00 00 00 00 00 00 00  Length = 241972 BitCount = 125 ID = 908
   7.006998 1  38D             Rx   d 8 00 00 00 00 00 00 00 00  Length = 239988 BitCount = 124 ID = 909
   7.007248 1  38E             Rx   d 8 00 00 00 00 00 00 00 00  Length = 239972 BitCount = 124 ID = 910
   7.007498 1  38F             Rx   d 8 00 00 00 00 00 00 00 00  Length = 239972 BitCount = 124 ID = 911
   7.007748 1  3FF             Rx   d 8 00 00 00 00 00 D3 00 00  Length = 239972 BitCount = 124 ID = 1023
   7.007999 1  390             Rx   d 8 7D 00 00 00 00 00 00 00  Length = 239972 BitCount = 124 ID = 912
   7.008243 1  621             Rx   d 8 10 EF BE 00 00 D3 00 00  Length = 233972 BitCount = 121 ID = 1569
   7.008493 1  622             Rx   d 8 10 00 00 00 00 D3 00 00  Length = 239972 BitCount = 124 ID = 1570
   7.008733 1  625             Rx   d 8 04 4C F1 00 00 D3 00 00  Length = 229972 BitCount = 119 ID = 1573
   7.008975 1  400             Rx   d 8 00 00 24 0B 51 D3 EB 49  Length = 231972 BitCount = 120 ID = 1024
   7.026770 1  Statistic: D 67 R 0 XD 0 XR 0 E 0 O 0 B 1.62%
   7.500859 1  204             Tx   d 8 80 00 00 00 00 00 00 00  Length = 246247 BitCount = 126 ID = 516
   7.501117 1  300             Rx   d 8 05 D3 22 D3 0E 74 20 FF  Length = 225972 BitCount = 117 ID = 768
   7.501355 1  301             Rx   d 8 0F 63 20 4F 0E 74 20 FF  Length = 227988 BitCount = 118 ID = 769
   7.501593 1  302             Rx   d 8 13 23 23 E8 0E 74 20 FF  Length = 227972 BitCount = 118 ID = 770
   7.501830 1  303             Rx   d 8 16 E3 23 7C 0E 74 20 FF  Length = 225972 BitCount = 117 ID = 771
   7.502068 1  304             Rx   d 8 1A 73 23 64 0E 74 20 FF  Length = 227972 BitCount = 118 ID = 772
   7.502304 1  305             Rx   d 8 1E A3 23 54 0E 74 20 FF  Length = 225972 BitCount = 117 ID = 773
   7.502542 1  306             Rx   d 8 1E A3 20 F3 0E 74 20 FF  Length = 227988 BitCount = 118 ID = 774
   7.502778 1  307             Rx   d 8 21 B3 23 A0 0E 74 20 FF  Length = 225972 BitCount = 117 ID = 775
   7.503026 1  308             Rx   d 8 FF FF FF FF FF 74 6F F8  Length = 237972 BitCount = 123 ID = 776
   7.503268 1  309             Rx   d 8 FF FF FF FF FF 74 6F F9  Length = 231972 BitCount = 120 ID = 777
   7.503518 1  380             Rx   d 8 00 00 29 00 35 FF 00 00  Length = 239988 BitCount = 124 ID = 896
   7.503768 1  381             Rx   d 8 00 00 00 00 00 05 00 05  Length = 239972 BitCount = 124 ID = 897
   7.504008 1  382             Rx   d 8 2F B0 13 7E 0C E4 04 B5  Length = 229972 BitCount = 119 ID = 898
   7.504257 1  383             Rx   d 8 00 00 00 00 00 00 2A 00  Length = 237972 BitCount = 123 ID = 899
   7.504501 1  384             Rx   d 8 00 00 00 35 00 35 00 35  Length = 233972 BitCount = 121 ID = 900
   7.504741 1  385             Rx   d 8 00 34 00 35 00 35 00 35  Length = 229988 BitCount = 119 ID = 901
   7.504985 1  386             Rx   d 8 00 33 00 37 00 00 00 00  Length = 233972 BitCount = 121 ID = 902
   7.505223 1  387             Rx   d 8 07 2E 03 EB 02 1D 00 00  Length = 227972 BitCount = 118 ID = 903
   7.505473 1  388             Rx   d 8 27 10 2F 00 2F 00 00 00  Length = 239972 BitCount = 124 ID = 904
   7.505723 1  389             Rx   d 8 00 00 00 00 00 00 00 00  Length = 239988 BitCount = 124 ID = 905
   7.505973 1  38A             Rx   d 8 00 00 00 00 00 00 00 00  Length = 239972 BitCount = 124 ID = 906
   7.506225 1  38B             Rx   d 8 00 00 00 00 00 00 00 00  Length = 241972 BitCount = 125 ID = 907
   7.506477 1  38C             Rx   d 8 00 00 00 00 00 00 00 00  Length = 241972 BitCount = 125 ID = 908
   7.506728 1  38D             Rx   d 8 00 00 00 00 00 00 00 00  Length = 239972 BitCount = 124 ID = 909
   7.506978 1  38E             Rx   d 8 00 00 00 00 00 00 00 00  Length = 239972 BitCount = 124 ID = 910
   7.507228 1  38F             Rx   d 8 00 00 00 00 00 00 00 00  Length = 239972 BitCount = 124 ID = 911
   7.507480 1  3FF             Rx   d 8 00 00 00 00 00 74 00 00  Length = 241972 BitCount = 125 ID = 1023
   7.507708 1  390             Rx   d 8 07 45 45 43 6E 74 57 72  Length = 217972 BitCount = 113 ID = 912
   7.507950 1  621             Rx   d 8 B0 EF BE 00 00 74 00 00  Length = 231988 BitCount = 120 ID = 1569
   7.508196 1  622             Rx   d 8 B0 00 00 00 00 74 00 00  Length = 235972 BitCount = 122 ID = 1570
   7.508434 1  625             Rx   d 8 2C 4C F1 00 00 74 00 00  Length = 227972 BitCount = 118 ID = 1573
   7.508668 1  400             Rx   d 8 DD 50 00 0C 51 74 B4 F4  Length = 223972 BitCount = 116 ID = 1024
   8.000883 1  100             Tx   d 8 77 77 00 00 80 00 00 00  Length = 238244 BitCount = 122 ID = 256
   8.001133 1  203             Tx   d 8 80 00 00 00 00 00 00 00  Length = 244244 BitCount = 125 ID = 515
   8.001393 1  300             Rx   d 8 0F 23 21 92 0E 13 20 FF  Length = 229988 BitCount = 119 ID = 768
   8.001627 1  301             Rx   d 8 13 73 23 D1 0E 13 20 FF  Length = 223972 BitCount = 116 ID = 769
   8.001861 1  302             Rx   d 8 14 E3 23 20 0E 13 20 FF  Length = 223972 BitCount = 116 ID = 770
   8.002097 1  303             Rx   d 8 17 23 23 96 0E 13 20 FF  Length = 225972 BitCount = 117 ID = 771
   8.002335 1  304             Rx   d 8 1A A3 20 C6 0E 13 20 FF  Length = 227972 BitCount = 118 ID = 772
   8.002571 1  305             Rx   d 8 1F 93 20 C5 0E 13 20 FF  Length = 225988 BitCount = 117 ID = 773
   8.002808 1  306             Rx   d 8 23 A3 20 DD 0E 13 20 FF  Length = 225972 BitCount = 117 ID = 774
   8.003044 1  307             Rx   d 8 25 23 23 8E 0E 13 20 FF  Length = 225972 BitCount = 117 ID = 775
   8.003290 1  308             Rx   d 8 FF FF FF FF FF 13 6F F8  Length = 235972 BitCount = 122 ID = 776
   8.003532 1  309             Rx   d 8 FF FF FF FF FF 13 6F F9  Length = 231988 BitCount = 120 ID = 777
   8.003780 1  380             Rx   d 8 00 00 2A 00 3C FF 00 00  Length = 237972 BitCount = 123 ID = 896
   8.004030 1  381             Rx   d 8 00 00 00 00 00 03 00 05  Length = 239972 BitCount = 124 ID = 897
   8.004262 1  382             Rx   d 8 2F DE 13 8B 0C E4 04 AA  Length = 221972 BitCount = 115 ID = 898
   8.004512 1  383             Rx   d 8 00 00 00 00 00 00 2B 00  Length = 239972 BitCount = 124 ID = 899
   8.004760 1  384             Rx   d 8 00 00 00 3E 00 3E 00 3D  Length = 237988 BitCount = 123 ID = 900
   8.005002 1  385             Rx   d 8 00 3B 00 3B 00 3B 00 3C  Length = 231972 BitCount = 120 ID = 901
   8.005249 1  386             Rx   d 8 00 3B 00 38 00 00 00 00  Length = 235972 BitCount = 122 ID = 902
   8.005489 1  387             Rx   d 8 07 2D 03 EC 02 1A 00 00  Length = 229972 BitCount = 119 ID = 903
   8.005739 1  388             Rx   d 8 27 10 2F 00 2F 00 00 00  Length = 239988 BitCount = 124 ID = 904
   8.005989 1  389             Rx   d 8 00 00 00 00 00 00 00 00  Length = 239972 BitCount = 124 ID = 905
   8.006239 1  38A             Rx   d 8 00 00 00 00 00 00 00 00  Length = 239972 BitCount = 124 ID = 906
   8.006491 1  38B             Rx   d 8 00 00 00 00 00 00 00 00  Length = 241972 BitCount = 125 ID = 907
   8.006743 1  38C             Rx   d 8 00 00 00 00 00 00 00 00  Length = 241972 BitCount = 125 ID = 908
   8.006993 1  38D             Rx   d 8 00 00 00 00 00 00 00 00  Length = 239988 BitCount = 124 ID = 909
   8.007243 1  38E             Rx   d 8 00 00 00 00 00 00 00 00  Length = 239972 BitCount = 124 ID = 910
   8.007493 1  38F             Rx   d 8 00 00 00 00 00 00 00 00  Length = 239972 BitCount = 124 ID = 911
   8.007746 1  3FF             Rx   d 8 00 00 00 00 00 13 00 00  Length = 241972 BitCount = 125 ID = 1023
   8.007992 1  390             Rx   d 8 11 2D 00 00 00 00 00 00  Length = 235988 BitCount = 122 ID = 912
   8.008236 1  621             Rx   d 8 60 EF BE 00 00 13 00 00  Length = 233972 BitCount = 121 ID = 1569
   8.008484 1  622             Rx   d 8 60 00 00 00 00 13 00 00  Length = 237972 BitCount = 123 ID = 1570
   8.008722 1  625             Rx   d 8 18 4C F1 00 00 13 00 00  Length = 227972 BitCount = 118 ID = 1573
   8.008962 1  400             Rx   d 8 00 00 20 23 51 13 9B 75  Length = 229972 BitCount = 119 ID = 1024
   8.026771 1  Statistic: D 67 R 0 XD 0 XR 0 E 0 O 0 B 1.62%
   8.500854 1  204             Tx   d 8 90 00 00 00 00 00 00 00  Length = 244244 BitCount = 125 ID = 516
   8.501112 1  300             Rx   d 8 06 43 22 DA 0E B4 20 FF  Length = 225972 BitCount = 117 ID = 768
   8.501348 1  301             Rx   d 8 0F 63 20 4F 0E B4 20 FF  Length = 225972 BitCount = 117 ID = 769
   8.501585 1  302             Rx   d 8 13 23 23 E8 0E B4 20 FF  Length = 225988 BitCount = 117 ID = 770
   8.501823 1  303             Rx   d 8 16 D3 23 7C 0E B4 20 FF  Length = 227972 BitCount = 118 ID = 771
   8.502061 1  304             Rx   d 8 1A 73 23 54 0E B4 20 FF  Length = 227972 BitCount = 118 ID = 772
   8.502299 1  305             Rx   d 8 1E A3 20 F1 0E B4 20 FF  Length = 227972 BitCount = 118 ID = 773
   8.502535 1  306             Rx   d 8 1E B3 23 54 0E B4 20 FF  Length = 225988 BitCount = 117 ID = 774
   8.502771 1  307             Rx   d 8 21 93 23 A4 0E B4 20 FF  Length = 225972 BitCount = 117 ID = 775
   8.503017 1  308             Rx   d 8 FF FF FF FF FF B4 6F F8  Length = 235972 BitCount = 122 ID = 776
   8.503259 1  309             Rx   d 8 FF FF FF FF FF B4 6F F9  Length = 231972 BitCount = 120 ID = 777
   8.503509 1  380             Rx   d 8 00 00 29 00 35 FF 00 00  Length = 239972 BitCount = 124 ID = 896
   8.503759 1  381             Rx   d 8 00 00 00 00 00 05 00 05  Length = 239988 BitCount = 124 ID = 897
   8.503994 1  382             Rx   d 8 2F CC 13 8B 0C F3 04 B5  Length = 223972 BitCount = 116 ID = 898
   8.504242 1  383             Rx   d 8 00 00 00 00 00 00 2A 00  Length = 237972 BitCount = 123 ID = 899
   8.504488 1  384             Rx   d 8 00 00 00 35 00 36 00 34  Length = 235972 BitCount = 122 ID = 900
   8.504730 1  385             Rx   d 8 00 34 00 36 00 35 00 35  Length = 231988 BitCount = 120 ID = 901
   8.504974 1  386             Rx   d 8 00 33 00 37 00 00 00 00  Length = 233972 BitCount = 121 ID = 902
   8.505212 1  387             Rx   d 8 07 31 03 EE 02 1D 00 00  Length = 227972 BitCount = 118 ID = 903
   8.505462 1  388             Rx   d 8 27 10 2F 00 2F 00 00 00  Length = 239972 BitCount = 124 ID = 904
   8.505712 1  389             Rx   d 8 00 00 00 00 00 00 00 00  Length = 239972 BitCount = 124 ID = 905
   8.505962 1  38A             Rx   d 8 00 00 00 00 00 00 00 00  Length = 239988 BitCount = 124 ID = 906
   8.506214 1  38B             Rx   d 8 00 00 00 00 00 00 00 00  Length = 241972 BitCount = 125 ID = 907
   8.506467 1  38C             Rx   d 8 00 00 00 00 00 00 00 00  Length = 241972 BitCount = 125 ID = 908
   8.506717 1  38D             Rx   d 8 00 00 00 00 00 00 00 00  Length = 239972 BitCount = 124 ID = 909
   8.506967 1  38E             Rx   d 8 00 00 00 00 00 00 00 00  Length = 239988 BitCount = 124 ID = 910
   8.507217 1  38F             Rx   d 8 00 00 00 00 00 00 00 00  Length = 239972 BitCount = 124 ID = 911
   8.507467 1  3FF             Rx   d 8 00 00 00 00 00 B4 00 00  Length = 239972 BitCount = 124 ID = 1023
   8.507717 1  390             Rx   d 8 1B 00 00 00 00 00 00 00  Length = 239972 BitCount = 124 ID = 912
   8.507959 1  621             Rx   d 8 10 EF BE 00 00 B4 00 00  Length = 231988 BitCount = 120 ID = 1569
   8.508205 1  622             Rx   d 8 10 00 00 00 00 B4 00 00  Length = 235972 BitCount = 122 ID = 1570
   8.508447 1  625             Rx   d 8 04 4C F1 00 00 B4 00 00  Length = 231972 BitCount = 120 ID = 1573
   8.508685 1  400             Rx   d 8 80 80 00 2F 51 B4 AE 6C  Length = 227972 BitCount = 118 ID = 1024
   9.000546 1  100             Tx   d 8 77 77 00 00 90 00 00 00  Length = 238259 BitCount = 122 ID = 256
   9.000794 1  203             Tx   d 8 90 00 00 00 00 00 00 00  Length = 242259 BitCount = 124 ID = 515
   9.001056 1  300             Rx   d 8 0E D3 23 DE 0E 53 20 FF  Length = 225972 BitCount = 117 ID = 768
   9.001290 1  301             Rx   d 8 0F 23 21 91 0E 53 20 FF  Length = 223972 BitCount = 116 ID = 769
   9.001524 1  302             Rx   d 8 13 73 23 D1 0E 53 20 FF  Length = 223972 BitCount = 116 ID = 770
   9.001758 1  303             Rx   d 8 14 E3 23 20 0E 53 20 FF  Length = 223988 BitCount = 116 ID = 771
   9.001994 1  304             Rx   d 8 17 23 23 96 0E 53 20 FF  Length = 225972 BitCount = 117 ID = 772
   9.002233 1  305             Rx   d 8 1A A3 20 C5 0E 53 20 FF  Length = 227972 BitCount = 118 ID = 773
   9.002473 1  306             Rx   d 8 1F A3 20 C6 0E 53 20 FF  Length = 229972 BitCount = 119 ID = 774
   9.002709 1  307             Rx   d 8 23 A3 20 DC 0E 53 20 FF  Length = 225988 BitCount = 117 ID = 775
   9.002955 1  308             Rx   d 8 FF FF FF FF FF 53 6F F8  Length = 235972 BitCount = 122 ID = 776
   9.003197 1  309             Rx   d 8 FF FF FF FF FF 53 6F F9  Length = 231972 BitCount = 120 ID = 777
   9.003445 1  380             Rx   d 8 00 00 2A 00 3C FF 00 00  Length = 237972 BitCount = 123 ID = 896
   9.003695 1  381             Rx   d 8 00 00 00 00 00 03 00 05  Length = 239972 BitCount = 124 ID = 897
   9.003931 1  382             Rx   d 8 2F CC 13 8A 0C E4 04 AA  Length = 225988 BitCount = 117 ID = 898
   9.004181 1  383             Rx   d 8 00 00 00 00 00 00 2B 00  Length = 239972 BitCount = 124 ID = 899
   9.004433 1  384             Rx   d 8 00 00 00 3F 00 3E 00 3E  Length = 241972 BitCount = 125 ID = 900
   9.004676 1  385             Rx   d 8 00 3C 00 3B 00 3B 00 3C  Length = 231972 BitCount = 120 ID = 901
   9.004922 1  386             Rx   d 8 00 3B 00 38 00 00 00 00  Length = 235988 BitCount = 122 ID = 902
   9.005160 1  387             Rx   d 8 07 22 03 EC 02 17 00 00  Length = 227972 BitCount = 118 ID = 903
   9.005410 1  388             Rx   d 8 27 10 2F 00 2F 00 00 00  Length = 239972 BitCount = 124 ID = 904
   9.005660 1  389             Rx   d 8 00 00 00 00 00 00 00 00  Length = 239972 BitCount = 124 ID = 905
   9.005910 1  38A             Rx   d 8 00 00 00 00 00 00 00 00  Length = 239972 BitCount = 124 ID = 906
   9.006162 1  38B             Rx   d 8 00 00 00 00 00 00 00 00  Length = 241988 BitCount = 125 ID = 907
   9.006414 1  38C             Rx   d 8 00 00 00 00 00 00 00 00  Length = 241972 BitCount = 125 ID = 908
   9.006664 1  38D             Rx   d 8 00 00 00 00 00 00 00 00  Length = 239972 BitCount = 124 ID = 909
   9.006914 1  38E             Rx   d 8 00 00 00 00 00 00 00 00  Length = 239972 BitCount = 124 ID = 910
   9.007165 1  38F             Rx   d 8 00 00 00 00 00 00 00 00  Length = 239972 BitCount = 124 ID = 911
   9.007415 1  3FF             Rx   d 8 00 00 00 00 00 53 00 00  Length = 239972 BitCount = 124 ID = 1023
   9.007661 1  390             Rx   d 8 25 2D 00 00 00 00 00 00  Length = 235972 BitCount = 122 ID = 912
   9.007903 1  621             Rx   d 8 B0 EF BE 00 00 53 00 00  Length = 231972 BitCount = 120 ID = 1569
   9.008149 1  622             Rx   d 8 B0 00 00 00 00 53 00 00  Length = 235972 BitCount = 122 ID = 1570
   9.008389 1  625             Rx   d 8 2C 4C F1 00 00 53 00 00  Length = 229988 BitCount = 119 ID = 1573
   9.008627 1  400             Rx   d 8 FF A5 00 00 51 53 A7 6A  Length = 227972 BitCount = 118 ID = 1024
   9.026771 1  Statistic: D 67 R 0 XD 0 XR 0 E 0 O 0 B 1.62%
   9.501129 1  204             Tx   d 8 A0 00 00 00 00 00 00 00  Length = 246247 BitCount = 126 ID = 516
   9.501395 1  300             Rx   d 8 06 93 1E C8 0E F4 20 FF  Length = 229972 BitCount = 119 ID = 768
   9.501632 1  301             Rx   d 8 0F 63 20 4F 0E F4 20 FF  Length = 225988 BitCount = 117 ID = 769
   9.501870 1  302             Rx   d 8 13 23 23 E8 0E F4 20 FF  Length = 227972 BitCount = 118 ID = 770
   9.502106 1  303             Rx   d 8 16 E3 23 7A 0E F4 20 FF  Length = 225972 BitCount = 117 ID = 771
   9.502344 1  304             Rx   d 8 1A 63 23 54 0E F4 20 FF  Length = 227972 BitCount = 118 ID = 772
   9.502580 1  305             Rx   d 8 1E 93 20 EF 0E F4 20 FF  Length = 225972 BitCount = 117 ID = 773
   9.502816 1  306             Rx   d 8 1E A3 23 54 0E F4 20 FF  Length = 225988 BitCount = 117 ID = 774
   9.503048 1  307             Rx   d 8 21 E3 23 A5 0E F4 20 FF  Length = 221972 BitCount = 115 ID = 775
   9.503292 1  308             Rx   d 8 FF FF FF FF FF F4 6C 70  Length = 233972 BitCount = 121 ID = 776
   9.503534 1  309             Rx   d 8 FF FF FF FF FF F4 6F F9  Length = 231972 BitCount = 120 ID = 777
   9.503784 1  380             Rx   d 8 00 00 29 00 35 FF 00 00  Length = 239988 BitCount = 124 ID = 896
   9.504035 1  381             Rx   d 8 00 00 00 00 00 05 00 05  Length = 239972 BitCount = 124 ID = 897
   9.504271 1  382             Rx   d 8 2F B9 13 81 0C F3 04 B5  Length = 225972 BitCount = 117 ID = 898
   9.504521 1  383             Rx   d 8 00 00 00 00 00 00 2B 00  Length = 239972 BitCount = 124 ID = 899
   9.504767 1  384             Rx   d 8 00 00 00 36 00 35 00 34  Length = 235972 BitCount = 122 ID = 900
   9.505007 1  385             Rx   d 8 00 34 00 36 00 35 00 34  Length = 229988 BitCount = 119 ID = 901
   9.505251 1  386             Rx   d 8 00 33 00 37 00 00 00 00  Length = 233972 BitCount = 121 ID = 902
   9.505491 1  387             Rx   d 8 07 2F 03 EC 02 1C 00 00  Length = 229972 BitCount = 119 ID = 903
   9.505741 1  388             Rx   d 8 27 10 2F 00 2F 00 00 00  Length = 239972 BitCount = 124 ID = 904
   9.505991 1  389             Rx   d 8 00 00 00 00 00 00 00 00  Length = 239988 BitCount = 124 ID = 905
   9.506241 1  38A             Rx   d 8 00 00 00 00 00 00 00 00  Length = 239972 BitCount = 124 ID = 906
   9.506494 1  38B             Rx   d 8 00 00 00 00 00 00 00 00  Length = 241972 BitCount = 125 ID = 907
   9.506746 1  38C             Rx   d 8 00 00 00 00 00 00 00 00  Length = 241972 BitCount = 125 ID = 908
   9.506996 1  38D             Rx   d 8 00 00 00 00 00 00 00 00  Length = 239972 BitCount = 124 ID = 909
   9.507246 1  38E             Rx   d 8 00 00 00 00 00 00 00 00  Length = 239972 BitCount = 124 ID = 910
   9.507496 1  38F             Rx   d 8 00 00 00 00 00 00 00 00  Length = 239972 BitCount = 124 ID = 911
   9.507746 1  3FF             Rx   d 8 00 00 00 00 00 F4 00 00  Length = 239972 BitCount = 124 ID = 1023
   9.507992 1  390             Rx   d 8 2F 2D 00 00 00 00 00 00  Length = 235972 BitCount = 122 ID = 912
   9.508236 1  621             Rx   d 8 60 EF BE 00 00 F4 00 00  Length = 233988 BitCount = 121 ID = 1569
   9.508480 1  622             Rx   d 8 60 00 00 00 00 F4 00 00  Length = 233972 BitCount = 121 ID = 1570
   9.508718 1  625             Rx   d 8 18 4C F1 00 00 F4 00 00  Length = 227972 BitCount = 118 ID = 1573
   9.508963 1  400             Rx   d 8 00 00 27 36 51 F4 37 D5  Length = 233972 BitCount = 121 ID = 1024
  10.000643 1  100             Tx   d 8 77 77 00 00 A0 00 00 00  Length = 236244 BitCount = 121 ID = 256
  10.000893 1  203             Tx   d 8 A0 00 00 00 00 00 00 00  Length = 244244 BitCount = 125 ID = 515
  10.001149 1  300             Rx   d 8 0E B3 23 DE 0E 93 20 FF  Length = 225972 BitCount = 117 ID = 768
  10.001381 1  301             Rx   d 8 0F 23 21 91 0E 93 20 FF  Length = 221972 BitCount = 115 ID = 769
  10.001617 1  302             Rx   d 8 13 83 23 D1 0E 93 20 FF  Length = 225972 BitCount = 117 ID = 770
  10.001851 1  303             Rx   d 8 14 E3 23 20 0E 93 20 FF  Length = 223972 BitCount = 116 ID = 771
  10.002088 1  304             Rx   d 8 17 23 23 96 0E 93 20 FF  Length = 225988 BitCount = 117 ID = 772
  10.002324 1  305             Rx   d 8 1A A3 20 C5 0E 93 20 FF  Length = 225972 BitCount = 117 ID = 773
  10.002562 1  306             Rx   d 8 1F A3 20 C7 0E 93 20 FF  Length = 227972 BitCount = 118 ID = 774
  10.002800 1  307             Rx   d 8 23 A3 20 DC 0E 93 20 FF  Length = 227972 BitCount = 118 ID = 775
  10.003046 1  308             Rx   d 8 FF FF FF FF FF 93 6F F8  Length = 235988 BitCount = 122 ID = 776
  10.003290 1  309             Rx   d 8 FF FF FF FF FF 93 6F F9  Length = 233972 BitCount = 121 ID = 777
  10.003538 1  380             Rx   d 8 00 00 2A 00 3C FF 00 00  Length = 237972 BitCount = 123 ID = 896
  10.003788 1  381             Rx   d 8 00 00 00 00 00 03 00 05  Length = 239972 BitCount = 124 ID = 897
  10.004020 1  382             Rx   d 8 2F FA 13 95 0C E4 04 AA  Length = 221972 BitCount = 115 ID = 898
  10.004270 1  383             Rx   d 8 00 00 00 00 00 00 2B 00  Length = 239988 BitCount = 124 ID = 899
  10.004523 1  384             Rx   d 8 00 00 00 3F 00 3E 00 3E  Length = 241972 BitCount = 125 ID = 900
  10.004765 1  385             Rx   d 8 00 3B 00 3B 00 3B 00 3C  Length = 231972 BitCount = 120 ID = 901
  10.005011 1  386             Rx   d 8 00 3B 00 38 00 00 00 00  Length = 235972 BitCount = 122 ID = 902
  10.005249 1  387             Rx   d 8 07 2E 03 EE 02 1B 00 00  Length = 227988 BitCount = 118 ID = 903
  10.005499 1  388             Rx   d 8 27 10 2F 00 2F 00 00 00  Length = 239972 BitCount = 124 ID = 904
  10.005749 1  389             Rx   d 8 00 00 00 00 00 00 00 00  Length = 239972 BitCount = 124 ID = 905
  10.005999 1  38A             Rx   d 8 00 00 00 00 00 00 00 00  Length = 239972 BitCount = 124 ID = 906
  10.006251 1  38B             Rx   d 8 00 00 00 00 00 00 00 00  Length = 241972 BitCount = 125 ID = 907
  10.006503 1  38C             Rx   d 8 00 00 00 00 00 00 00 00  Length = 241988 BitCount = 125 ID = 908
  10.006753 1  38D             Rx   d 8 00 00 00 00 00 00 00 00  Length = 239972 BitCount = 124 ID = 909
  10.007004 1  38E             Rx   d 8 00 00 00 00 00 00 00 00  Length = 239972 BitCount = 124 ID = 910
  10.007254 1  38F             Rx   d 8 00 00 00 00 00 00 00 00  Length = 239972 BitCount = 124 ID = 911
  10.007504 1  3FF             Rx   d 8 00 00 00 00 00 93 00 00  Length = 239988 BitCount = 124 ID = 1023
  10.007750 1  390             Rx   d 8 39 2D 00 00 00 00 00 00  Length = 235972 BitCount = 122 ID = 912
  10.007994 1  621             Rx   d 8 10 EF BE 00 00 93 00 00  Length = 233972 BitCount = 121 ID = 1569
  10.008240 1  622             Rx   d 8 10 00 00 00 00 93 00 00  Length = 235972 BitCount = 122 ID = 1570
  10.008480 1  625             Rx   d 8 04 4C F1 00 00 93 00 00  Length = 229972 BitCount = 119 ID = 1573
  10.008722 1  400             Rx   d 8 1F 00 00 0C 51 93 C9 2D  Length = 231988 BitCount = 120 ID = 1024
  10.026771 1  Statistic: D 67 R 0 XD 0 XR 0 E 0 O 0 B 1.62%
  10.500876 1  204             Tx   d 8 B0 00 00 00 00 00 00 00  Length = 244259 BitCount = 125 ID = 516
  10.501133 1  300             Rx   d 8 06 13 22 B7 0E 34 20 FF  Length = 223972 BitCount = 116 ID = 768
  10.501369 1  301             Rx   d 8 0F 63 20 4F 0E 34 20 FF  Length = 225972 BitCount = 117 ID = 769
  10.501605 1  302             Rx   d 8 13 23 23 E7 0E 34 20 FF  Length = 225972 BitCount = 117 ID = 770
  10.501843 1  303             Rx   d 8 14 83 20 C3 0E 34 20 FF  Length = 227988 BitCount = 118 ID = 771
  10.502081 1  304             Rx   d 8 17 13 23 7A 0E 34 20 FF  Length = 227972 BitCount = 118 ID = 772
  10.502313 1  305             Rx   d 8 1A 53 23 59 0E 34 20 FF  Length = 221972 BitCount = 115 ID = 773
  10.502551 1  306             Rx   d 8 1E 13 23 BF 0E 34 20 FF  Length = 227972 BitCount = 118 ID = 774
  10.502789 1  307             Rx   d 8 1E 93 23 54 0E 34 20 FF  Length = 227988 BitCount = 118 ID = 775
  10.503035 1  308             Rx   d 8 FF FF FF FF FF 34 6F F8  Length = 235972 BitCount = 122 ID = 776
  10.503277 1  309             Rx   d 8 FF FF FF FF FF 34 6F F9  Length = 231972 BitCount = 120 ID = 777
  10.503528 1  380             Rx   d 8 00 00 29 00 35 FF 00 00  Length = 239972 BitCount = 124 ID = 896
  10.503778 1  381             Rx   d 8 00 00 00 00 00 05 00 05  Length = 239972 BitCount = 124 ID = 897
  10.504012 1  382             Rx   d 8 2F C3 13 8A 0C E4 04 B5  Length = 223988 BitCount = 116 ID = 898
  10.504262 1  383             Rx   d 8 00 00 00 00 00 00 2B 00  Length = 239972 BitCount = 124 ID = 899
  10.504506 1  384             Rx   d 8 00 00 00 35 00 35 00 34  Length = 233972 BitCount = 121 ID = 900
  10.504748 1  385             Rx   d 8 00 34 00 36 00 35 00 35  Length = 231972 BitCount = 120 ID = 901
  10.504992 1  386             Rx   d 8 00 33 00 37 00 00 00 00  Length = 233988 BitCount = 121 ID = 902
  10.505232 1  387             Rx   d 8 07 30 03 ED 02 1D 00 00  Length = 229972 BitCount = 119 ID = 903
  10.505482 1  388             Rx   d 8 27 10 2F 00 2F 00 00 00  Length = 239972 BitCount = 124 ID = 904
  10.505732 1  389             Rx   d 8 00 00 00 00 00 00 00 00  Length = 239972 BitCount = 124 ID = 905
  10.505983 1  38A             Rx   d 8 00 00 00 00 00 00 00 00  Length = 239988 BitCount = 124 ID = 906
  10.506235 1  38B             Rx   d 8 00 00 00 00 00 00 00 00  Length = 241972 BitCount = 125 ID = 907
  10.506487 1  38C             Rx   d 8 00 00 00 00 00 00 00 00  Length = 241972 BitCount = 125 ID = 908
  10.506737 1  38D             Rx   d 8 00 00 00 00 00 00 00 00  Length = 239972 BitCount = 124 ID = 909
  10.506987 1  38E             Rx   d 8 00 00 00 00 00 00 00 00  Length = 239972 BitCount = 124 ID = 910
  10.507237 1  38F             Rx   d 8 00 00 00 00 00 00 00 00  Length = 239988 BitCount = 124 ID = 911
  10.507489 1  3FF             Rx   d 8 00 00 00 00 00 34 00 00  Length = 241972 BitCount = 125 ID = 1023
  10.507721 1  390             Rx   d 8 43 4E 76 6D 41 66 74 00  Length = 221972 BitCount = 115 ID = 912
  10.507965 1  621             Rx   d 8 B0 EF BE 00 00 34 00 00  Length = 233972 BitCount = 121 ID = 1569
  10.508211 1  622             Rx   d 8 B0 00 00 00 00 34 00 00  Length = 235988 BitCount = 122 ID = 1570
  10.508450 1  625             Rx   d 8 2C 4C F1 00 00 34 00 00  Length = 227972 BitCount = 118 ID = 1573
  10.508690 1  400             Rx   d 8 2C 18 24 0B 51 34 BE 70  Length = 229972 BitCount = 119 ID = 1024
  11.001018 1  100             Tx   d 8 77 77 00 00 B0 00 00 00  Length = 236244 BitCount = 121 ID = 256
  11.001266 1  203             Tx   d 8 B0 00 00 00 00 00 00 00  Length = 242244 BitCount = 124 ID = 515
  11.001526 1  300             Rx   d 8 0F 23 21 91 0E D3 20 FF  Length = 225972 BitCount = 117 ID = 768
  11.001764 1  301             Rx   d 8 13 83 23 D1 0E D3 20 FF  Length = 227972 BitCount = 118 ID = 769
  11.002000 1  302             Rx   d 8 14 E3 23 20 0E D3 20 FF  Length = 225972 BitCount = 117 ID = 770
  11.002235 1  303             Rx   d 8 17 23 23 97 0E D3 20 FF  Length = 223988 BitCount = 116 ID = 771
  11.002473 1  304             Rx   d 8 1A A3 20 C5 0E D3 20 FF  Length = 227972 BitCount = 118 ID = 772
  11.002709 1  305             Rx   d 8 1F 93 20 C7 0E D3 20 FF  Length = 225972 BitCount = 117 ID = 773
  11.002945 1  306             Rx   d 8 23 93 20 DD 0E D3 20 FF  Length = 225972 BitCount = 117 ID = 774
  11.003179 1  307             Rx   d 8 25 33 23 8E 0E D3 20 FF  Length = 223988 BitCount = 116 ID = 775
  11.003425 1  308             Rx   d 8 FF FF FF FF FF D3 6F F8  Length = 235972 BitCount = 122 ID = 776
  11.003667 1  309             Rx   d 8 FF FF FF FF FF D3 6F F9  Length = 231972 BitCount = 120 ID = 777
  11.003915 1  380             Rx   d 8 00 00 2A 00 3C FF 00 00  Length = 237972 BitCount = 123 ID = 896
  11.004165 1  381             Rx   d 8 00 00 00 00 00 03 00 05  Length = 239972 BitCount = 124 ID = 897
  11.004399 1  382             Rx   d 8 2F DE 13 92 0C E4 04 AA  Length = 223988 BitCount = 116 ID = 898
  11.004650 1  383             Rx   d 8 00 00 00 00 00 00 2B 00  Length = 239972 BitCount = 124 ID = 899
  11.004902 1  384             Rx   d 8 00 00 00 3F 00 3E 00 3E  Length = 241972 BitCount = 125 ID = 900
  11.005144 1  385             Rx   d 8 00 3C 00 3B 00 3B 00 3C  Length = 231972 BitCount = 120 ID = 901
  11.005390 1  386             Rx   d 8 00 3B 00 38 00 00 00 00  Length = 235988 BitCount = 122 ID = 902
  11.005630 1  387             Rx   d 8 07 2A 03 EE 02 1B 00 00  Length = 229972 BitCount = 119 ID = 903
  11.005880 1  388             Rx   d 8 27 10 2F 00 2F 00 00 00  Length = 239972 BitCount = 124 ID = 904
  11.006130 1  389             Rx   d 8 00 00 00 00 00 00 00 00  Length = 239972 BitCount = 124 ID = 905
  11.006380 1  38A             Rx   d 8 00 00 00 00 00 00 00 00  Length = 239972 BitCount = 124 ID = 906
  11.006632 1  38B             Rx   d 8 00 00 00 00 00 00 00 00  Length = 241988 BitCount = 125 ID = 907
  11.006884 1  38C             Rx   d 8 00 00 00 00 00 00 00 00  Length = 241972 BitCount = 125 ID = 908
  11.007135 1  38D             Rx   d 8 00 00 00 00 00 00 00 00  Length = 239972 BitCount = 124 ID = 909
  11.007385 1  38E             Rx   d 8 00 00 00 00 00 00 00 00  Length = 239972 BitCount = 124 ID = 910
  11.007635 1  38F             Rx   d 8 00 00 00 00 00 00 00 00  Length = 239988 BitCount = 124 ID = 911
  11.007885 1  3FF             Rx   d 8 00 00 00 00 00 D3 00 00  Length = 239972 BitCount = 124 ID = 1023
  11.008133 1  390             Rx   d 8 4D 00 00 00 00 00 00 00  Length = 237972 BitCount = 123 ID = 912
  11.008375 1  621             Rx   d 8 60 EF BE 00 00 D3 00 00  Length = 231972 BitCount = 120 ID = 1569
  11.008619 1  622             Rx   d 8 60 00 00 00 00 D3 00 00  Length = 233972 BitCount = 121 ID = 1570
  11.008857 1  625             Rx   d 8 18 4C F1 00 00 D3 00 00  Length = 227988 BitCount = 118 ID = 1573
  11.009099 1  400             Rx   d 8 00 00 00 2F 51 D3 A8 0C  Length = 231972 BitCount = 120 ID = 1024
  11.026771 1  Statistic: D 67 R 0 XD 0 XR 0 E 0 O 0 B 1.62%
  11.500860 1  204             Tx   d 8 C0 00 00 00 00 00 00 00  Length = 246247 BitCount = 126 ID = 516
  11.501120 1  300             Rx   d 8 06 13 1E C4 0E 74 20 FF  Length = 227972 BitCount = 118 ID = 768
  11.501358 1  301             Rx   d 8 0F 63 20 4F 0E 74 20 FF  Length = 227972 BitCount = 118 ID = 769
  11.501596 1  302             Rx   d 8 13 23 23 E8 0E 74 20 FF  Length = 227972 BitCount = 118 ID = 770
  11.501834 1  303             Rx   d 8 14 73 20 C4 0E 74 20 FF  Length = 227988 BitCount = 118 ID = 771
  11.502070 1  304             Rx   d 8 16 D3 23 79 0E 74 20 FF  Length = 225972 BitCount = 117 ID = 772
  11.502308 1  305             Rx   d 8 1A 73 23 54 0E 74 20 FF  Length = 227972 BitCount = 118 ID = 773
  11.502544 1  306             Rx   d 8 1D 93 23 D2 0E 74 20 FF  Length = 225972 BitCount = 117 ID = 774
  11.502780 1  307             Rx   d 8 1E C3 23 54 0E 74 20 FF  Length = 225972 BitCount = 117 ID = 775
  11.503024 1  308             Rx   d 8 FF FF FF FF FF 74 6C 70  Length = 233988 BitCount = 121 ID = 776
  11.503267 1  309             Rx   d 8 FF FF FF FF FF 74 6F F9  Length = 231972 BitCount = 120 ID = 777
  11.503517 1  380             Rx   d 8 00 00 29 00 35 FF 00 00  Length = 239972 BitCount = 124 ID = 896
  11.503767 1  381             Rx   d 8 00 00 00 00 00 05 00 05  Length = 239972 BitCount = 124 ID = 897
  11.503999 1  382             Rx   d 8 2F 9E 13 7B 0C E4 04 B5  Length = 221988 BitCount = 115 ID = 898
  11.504249 1  383             Rx   d 8 00 00 00 00 00 00 2B 00  Length = 239972 BitCount = 124 ID = 899
  11.504495 1  384             Rx   d 8 00 00 00 35 00 36 00 34  Length = 235972 BitCount = 122 ID = 900
  11.504737 1  385             Rx   d 8 00 34 00 36 00 35 00 35  Length = 231972 BitCount = 120 ID = 901
  11.504981 1  386             Rx   d 8 00 33 00 37 00 00 00 00  Length = 233988 BitCount = 121 ID = 902
  11.505223 1  387             Rx   d 8 07 1F 03 EC 02 18 00 00  Length = 231972 BitCount = 120 ID = 903
  11.505473 1  388             Rx   d 8 27 10 2F 00 2F 00 00 00  Length = 239972 BitCount = 124 ID = 904
  11.505724 1  389             Rx   d 8 00 00 00 00 00 00 00 00  Length = 239972 BitCount = 124 ID = 905
  11.505974 1  38A             Rx   d 8 00 00 00 00 00 00 00 00  Length = 239972 BitCount = 124 ID = 906
  11.506226 1  38B             Rx   d 8 00 00 00 00 00 00 00 00  Length = 241988 BitCount = 125 ID = 907
  11.506478 1  38C             Rx   d 8 00 00 00 00 00 00 00 00  Length = 241972 BitCount = 125 ID = 908
  11.506728 1  38D             Rx   d 8 00 00 00 00 00 00 00 00  Length = 239972 BitCount = 124 ID = 909
  11.506978 1  38E             Rx   d 8 00 00 00 00 00 00 00 00  Length = 239972 BitCount = 124 ID = 910
  11.507228 1  38F             Rx   d 8 00 00 00 00 00 00 00 00  Length = 239988 BitCount = 124 ID = 911
  11.507480 1  3FF             Rx   d 8 00 00 00 00 00 74 00 00  Length = 241972 BitCount = 125 ID = 1023
  11.507730 1  390             Rx   d 8 57 00 00 00 00 00 00 00  Length = 239972 BitCount = 124 ID = 912
  11.507974 1  621             Rx   d 8 10 EF BE 00 00 74 00 00  Length = 233972 BitCount = 121 ID = 1569
  11.508221 1  622             Rx   d 8 10 00 00 00 00 74 00 00  Length = 235972 BitCount = 122 ID = 1570
  11.508463 1  625             Rx   d 8 04 4C F1 00 00 74 00 00  Length = 231988 BitCount = 120 ID = 1573
  11.508697 1  400             Rx   d 8 DD 50 20 23 51 74 2B 9C  Length = 223972 BitCount = 116 ID = 1024
  12.000853 1  100             Tx   d 8 77 77 00 00 C0 00 00 00  Length = 238244 BitCount = 122 ID = 256
  12.001101 1  203             Tx   d 8 C0 00 00 00 00 00 00 00  Length = 242244 BitCount = 124 ID = 515
  12.001357 1  300             Rx   d 8 13 83 23 CB 0E 13 20 FF  Length = 225972 BitCount = 117 ID = 768
  12.001593 1  301             Rx   d 8 13 D3 23 22 0E 13 20 FF  Length = 225988 BitCount = 117 ID = 769
  12.001827 1  302             Rx   d 8 17 13 23 94 0E 13 20 FF  Length = 223972 BitCount = 116 ID = 770
  12.002066 1  303             Rx   d 8 1A A3 20 CA 0E 13 20 FF  Length = 227972 BitCount = 118 ID = 771
  12.002302 1  304             Rx   d 8 1F 43 23 7B 0E 13 20 FF  Length = 225972 BitCount = 117 ID = 772
  12.002542 1  305             Rx   d 8 1F A3 20 C1 0E 13 20 FF  Length = 229988 BitCount = 119 ID = 773
  12.002778 1  306             Rx   d 8 23 A3 20 DE 0E 13 20 FF  Length = 225972 BitCount = 117 ID = 774
  12.003014 1  307             Rx   d 8 25 03 23 8E 0E 13 20 FF  Length = 225972 BitCount = 117 ID = 775
  12.003260 1  308             Rx   d 8 FF FF FF FF FF 13 6F F8  Length = 235972 BitCount = 122 ID = 776
  12.003502 1  309             Rx   d 8 FF FF FF FF FF 13 6F F9  Length = 231972 BitCount = 120 ID = 777
  12.003750 1  380             Rx   d 8 00 00 2A 00 3C FF 00 00  Length = 237988 BitCount = 123 ID = 896
  12.004000 1  381             Rx   d 8 00 00 00 00 00 03 00 05  Length = 239972 BitCount = 124 ID = 897
  12.004232 1  382             Rx   d 8 2F 8B 13 69 0C E4 04 AA  Length = 221972 BitCount = 115 ID = 898
  12.004483 1  383             Rx   d 8 00 00 00 00 00 00 2B 00  Length = 239972 BitCount = 124 ID = 899
  12.004735 1  384             Rx   d 8 00 00 00 3F 00 3F 00 3E  Length = 241988 BitCount = 125 ID = 900
  12.004977 1  385             Rx   d 8 00 3C 00 3B 00 3B 00 3D  Length = 231972 BitCount = 120 ID = 901
  12.005223 1  386             Rx   d 8 00 3B 00 38 00 00 00 00  Length = 235972 BitCount = 122 ID = 902
  12.005463 1  387             Rx   d 8 07 21 03 E6 02 17 00 00  Length = 229972 BitCount = 119 ID = 903
  12.005713 1  388             Rx   d 8 27 10 2F 00 2F 00 00 00  Length = 239972 BitCount = 124 ID = 904
  12.005963 1  389             Rx   d 8 00 00 00 00 00 00 00 00  Length = 239988 BitCount = 124 ID = 905
  12.006213 1  38A             Rx   d 8 00 00 00 00 00 00 00 00  Length = 239972 BitCount = 124 ID = 906
  12.006465 1  38B             Rx   d 8 00 00 00 00 00 00 00 00  Length = 241972 BitCount = 125 ID = 907
  12.006717 1  38C             Rx   d 8 00 00 00 00 00 00 00 00  Length = 241972 BitCount = 125 ID = 908
  12.006968 1  38D             Rx   d 8 00 00 00 00 00 00 00 00  Length = 239972 BitCount = 124 ID = 909
  12.007218 1  38E             Rx   d 8 00 00 00 00 00 00 00 00  Length = 239988 BitCount = 124 ID = 910
  12.007468 1  38F             Rx   d 8 00 00 00 00 00 00 00 00  Length = 239972 BitCount = 124 ID = 911
  12.007720 1  3FF             Rx   d 8 00 00 00 00 00 13 00 00  Length = 241972 BitCount = 125 ID = 1023
  12.007968 1  390             Rx   d 8 61 00 00 00 00 00 00 00  Length = 237972 BitCount = 123 ID = 912
  12.008212 1  621             Rx   d 8 B0 EF BE 00 00 13 00 00  Length = 233988 BitCount = 121 ID = 1569
  12.008456 1  622             Rx   d 8 B0 00 00 00 00 13 00 00  Length = 233972 BitCount = 121 ID = 1570
  12.008696 1  625             Rx   d 8 2C 4C F1 00 00 13 00 00  Length = 229972 BitCount = 119 ID = 1573
  12.008934 1  400             Rx   d 8 00 00 27 36 51 13 D2 0E  Length = 227972 BitCount = 118 ID = 1024
  12.026772 1  Statistic: D 67 R 0 XD 0 XR 0 E 0 O 0 B 1.62%
  12.500851 1  204             Tx   d 8 D0 00 00 00 00 00 00 00  Length = 244259 BitCount = 125 ID = 516
  12.501107 1  300             Rx   d 8 05 13 22 B9 0E B4 20 FF  Length = 223972 BitCount = 116 ID = 768
  12.501341 1  301             Rx   d 8 07 53 24 F9 0E B4 20 FF  Length = 223972 BitCount = 116 ID = 769
  12.501577 1  302             Rx   d 8 0F 63 20 4E 0E B4 20 FF  Length = 225972 BitCount = 117 ID = 770
  12.501813 1  303             Rx   d 8 13 33 23 E7 0E B4 20 FF  Length = 225988 BitCount = 117 ID = 771
  12.502051 1  304             Rx   d 8 17 13 23 76 0E B4 20 FF  Length = 227972 BitCount = 118 ID = 772
  12.502287 1  305             Rx   d 8 1A 43 23 5E 0E B4 20 FF  Length = 225972 BitCount = 117 ID = 773
  12.502525 1  306             Rx   d 8 1E 83 20 EF 0E B4 20 FF  Length = 227972 BitCount = 118 ID = 774
  12.502761 1  307             Rx   d 8 24 23 23 ED 0E B4 20 FF  Length = 225988 BitCount = 117 ID = 775
  12.503007 1  308             Rx   d 8 FF FF FF FF FF B4 6F F8  Length = 235972 BitCount = 122 ID = 776
  12.503249 1  309             Rx   d 8 FF FF FF FF FF B4 6F F9  Length = 231972 BitCount = 120 ID = 777
  12.503500 1  380             Rx   d 8 00 00 29 00 35 FF 00 00  Length = 239972 BitCount = 124 ID = 896
  12.503750 1  381             Rx   d 8 00 00 00 00 00 05 00 05  Length = 239988 BitCount = 124 ID = 897
  12.503986 1  382             Rx   d 8 2F D5 13 90 0C F3 04 B5  Length = 225972 BitCount = 117 ID = 898
  12.504236 1  383             Rx   d 8 00 00 00 00 00 00 2B 00  Length = 239972 BitCount = 124 ID = 899
  12.504480 1  384             Rx   d 8 00 00 00 36 00 36 00 35  Length = 233972 BitCount = 121 ID = 900
  12.504720 1  385             Rx   d 8 00 35 00 36 00 35 00 35  Length = 229972 BitCount = 119 ID = 901
  12.504964 1  386             Rx   d 8 00 33 00 37 00 00 00 00  Length = 233988 BitCount = 121 ID = 902
  12.505204 1  387             Rx   d 8 07 32 03 EF 02 1D 00 00  Length = 229972 BitCount = 119 ID = 903
  12.505454 1  388             Rx   d 8 27 10 2F 00 2F 00 00 00  Length = 239972 BitCount = 124 ID = 904
  12.505704 1  389             Rx   d 8 00 00 00 00 00 00 00 00  Length = 239972 BitCount = 124 ID = 905
  12.505955 1  38A             Rx   d 8 00 00 00 00 00 00 00 00  Length = 239988 BitCount = 124 ID = 906
  12.506207 1  38B             Rx   d 8 00 00 00 00 00 00 00 00  Length = 241972 BitCount = 125 ID = 907
  12.506459 1  38C             Rx   d 8 00 00 00 00 00 00 00 00  Length = 241972 BitCount = 125 ID = 908
  12.506709 1  38D             Rx   d 8 00 00 00 00 00 00 00 00  Length = 239972 BitCount = 124 ID = 909
  12.506959 1  38E             Rx   d 8 00 00 00 00 00 00 00 00  Length = 239972 BitCount = 124 ID = 910
  12.507209 1  38F             Rx   d 8 00 00 00 00 00 00 00 00  Length = 239972 BitCount = 124 ID = 911
  12.507459 1  3FF             Rx   d 8 00 00 00 00 00 B4 00 00  Length = 239972 BitCount = 124 ID = 1023
  12.507707 1  390             Rx   d 8 6B 00 00 00 00 00 00 00  Length = 237972 BitCount = 123 ID = 912
  12.507951 1  621             Rx   d 8 60 EF BE 00 00 B4 00 00  Length = 233972 BitCount = 121 ID = 1569
  12.508196 1  622             Rx   d 8 60 00 00 00 00 B4 00 00  Length = 233988 BitCount = 121 ID = 1570
  12.508434 1  625             Rx   d 8 18 4C F1 00 00 B4 00 00  Length = 227972 BitCount = 118 ID = 1573
  12.508674 1  400             Rx   d 8 80 80 00 00 51 B4 A9 A7  Length = 229972 BitCount = 119 ID = 1024
  13.000842 1  100             Tx   d 8 77 77 00 00 D0 00 00 00  Length = 236244 BitCount = 121 ID = 256
  13.001092 1  203             Tx   d 8 D0 00 00 00 00 00 00 00  Length = 244244 BitCount = 125 ID = 515
  13.001350 1  300             Rx   d 8 0E C3 23 DE 0E 53 20 FF  Length = 225972 BitCount = 117 ID = 768
  13.001586 1  301             Rx   d 8 0F 23 21 92 0E 53 20 FF  Length = 225972 BitCount = 117 ID = 769
  13.001820 1  302             Rx   d 8 13 73 23 D3 0E 53 20 FF  Length = 223988 BitCount = 116 ID = 770
  13.002059 1  303             Rx   d 8 16 33 20 EC 0E 53 20 FF  Length = 227972 BitCount = 118 ID = 771
  13.002295 1  304             Rx   d 8 17 23 23 97 0E 53 20 FF  Length = 225972 BitCount = 117 ID = 772
  13.002531 1  305             Rx   d 8 1A A3 20 C4 0E 53 20 FF  Length = 225972 BitCount = 117 ID = 773
  13.002767 1  306             Rx   d 8 1D 13 20 8C 0E 53 20 FF  Length = 225972 BitCount = 117 ID = 774
  13.003005 1  307             Rx   d 8 1F 73 20 C9 0E 53 20 FF  Length = 227972 BitCount = 118 ID = 775
  13.003251 1  308             Rx   d 8 FF FF FF FF FF 53 6F F8  Length = 235972 BitCount = 122 ID = 776
  13.003493 1  309             Rx   d 8 FF FF FF FF FF 53 6F F9  Length = 231972 BitCount = 120 ID = 777
  13.003741 1  380             Rx   d 8 00 00 2A 00 3C FF 00 00  Length = 237972 BitCount = 123 ID = 896
  13.003991 1  381             Rx   d 8 00 00 00 00 00 03 00 05  Length = 239988 BitCount = 124 ID = 897
  13.004227 1  382             Rx   d 8 2F E8 13 92 0C E4 04 AA  Length = 225972 BitCount = 117 ID = 898
  13.004478 1  383             Rx   d 8 00 00 00 00 00 00 2B 00  Length = 239972 BitCount = 124 ID = 899
  13.004730 1  384             Rx   d 8 00 00 00 3F 00 3E 00 3E  Length = 241972 BitCount = 125 ID = 900
  13.004972 1  385             Rx   d 8 00 3C 00 3B 00 3B 00 3C  Length = 231972 BitCount = 120 ID = 901
  13.005218 1  386             Rx   d 8 00 3B 00 38 00 00 00 00  Length = 235972 BitCount = 122 ID = 902
  13.005462 1  387             Rx   d 8 07 30 03 ED 02 1C 00 00  Length = 233972 BitCount = 121 ID = 903
  13.005712 1  388             Rx   d 8 27 10 2F 00 2F 00 00 00  Length = 239972 BitCount = 124 ID = 904
  13.005962 1  389             Rx   d 8 00 00 00 00 00 00 00 00  Length = 239972 BitCount = 124 ID = 905
  13.006212 1  38A             Rx   d 8 00 00 00 00 00 00 00 00  Length = 239988 BitCount = 124 ID = 906
  13.006464 1  38B             Rx   d 8 00 00 00 00 00 00 00 00  Length = 241972 BitCount = 125 ID = 907
  13.006716 1  38C             Rx   d 8 00 00 00 00 00 00 00 00  Length = 241972 BitCount = 125 ID = 908
  13.006967 1  38D             Rx   d 8 00 00 00 00 00 00 00 00  Length = 239972 BitCount = 124 ID = 909
  13.007217 1  38E             Rx   d 8 00 00 00 00 00 00 00 00  Length = 239972 BitCount = 124 ID = 910
  13.007467 1  38F             Rx   d 8 00 00 00 00 00 00 00 00  Length = 239988 BitCount = 124 ID = 911
  13.007717 1  3FF             Rx   d 8 00 00 00 00 00 53 00 00  Length = 239972 BitCount = 124 ID = 1023
  13.007971 1  390             Rx   d 8 75 00 00 00 00 00 00 00  Length = 243972 BitCount = 126 ID = 912
  13.008215 1  621             Rx   d 8 10 EF BE 00 00 53 00 00  Length = 233972 BitCount = 121 ID = 1569
  13.008463 1  622             Rx   d 8 10 00 00 00 00 53 00 00  Length = 237988 BitCount = 123 ID = 1570
  13.008701 1  625             Rx   d 8 04 4C F1 00 00 53 00 00  Length = 227972 BitCount = 118 ID = 1573
  13.008937 1  400             Rx   d 8 FF A5 24 0B 51 53 C3 53  Length = 225972 BitCount = 117 ID = 1024
  13.026772 1  Statistic: D 67 R 0 XD 0 XR 0 E 0 O 0 B 1.62%
  13.500818 1  204             Tx   d 8 E0 00 00 00 00 00 00 00  Length = 244244 BitCount = 125 ID = 516
  13.501076 1  300             Rx   d 8 05 C3 1E DC 0E F4 20 FF  Length = 225972 BitCount = 117 ID = 768
  13.501312 1  301             Rx   d 8 0F 63 20 4F 0E F4 20 FF  Length = 225972 BitCount = 117 ID = 769
  13.501550 1  302             Rx   d 8 13 23 23 E8 0E F4 20 FF  Length = 227972 BitCount = 118 ID = 770
  13.501786 1  303             Rx   d 8 16 E3 23 7C 0E F4 20 FF  Length = 225972 BitCount = 117 ID = 771
  13.502024 1  304             Rx   d 8 1A 73 23 54 0E F4 20 FF  Length = 227988 BitCount = 118 ID = 772
  13.502262 1  305             Rx   d 8 1E B3 20 F1 0E F4 20 FF  Length = 227972 BitCount = 118 ID = 773
  13.502500 1  306             Rx   d 8 21 A3 23 A2 0E F4 20 FF  Length = 227972 BitCount = 118 ID = 774
  13.502738 1  307             Rx   d 8 24 13 23 EB 0E F4 20 FF  Length = 227972 BitCount = 118 ID = 775
  13.502986 1  308             Rx   d 8 FF FF FF FF FF F4 6F F8  Length = 237988 BitCount = 123 ID = 776
  13.503229 1  309             Rx   d 8 FF FF FF FF FF F4 6F F9  Length = 231972 BitCount = 120 ID = 777
  13.503479 1  380             Rx   d 8 00 00 29 00 35 FF 00 00  Length = 239972 BitCount = 124 ID = 896
  13.503729 1  381             Rx   d 8 00 00 00 00 00 05 00 05  Length = 239972 BitCount = 124 ID = 897
  13.503965 1  382             Rx   d 8 2F 94 13 75 0C F3 04 B5  Length = 225972 BitCount = 117 ID = 898
  13.504215 1  383             Rx   d 8 00 00 00 00 00 00 2B 00  Length = 239972 BitCount = 124 ID = 899
  13.504459 1  384             Rx   d 8 00 00 00 35 00 36 00 35  Length = 233972 BitCount = 121 ID = 900
  13.504701 1  385             Rx   d 8 00 34 00 36 00 35 00 35  Length = 231972 BitCount = 120 ID = 901
  13.504945 1  386             Rx   d 8 00 33 00 37 00 00 00 00  Length = 233972 BitCount = 121 ID = 902
  13.505183 1  387             Rx   d 8 07 2E 03 E9 02 1C 00 00  Length = 227988 BitCount = 118 ID = 903
  13.505433 1  388             Rx   d 8 27 10 2F 00 2F 00 00 00  Length = 239972 BitCount = 124 ID = 904
  13.505684 1  389             Rx   d 8 00 00 00 00 00 00 00 00  Length = 239972 BitCount = 124 ID = 905
  13.505934 1  38A             Rx   d 8 00 00 00 00 00 00 00 00  Length = 239972 BitCount = 124 ID = 906
  13.506186 1  38B             Rx   d 8 00 00 00 00 00 00 00 00  Length = 241988 BitCount = 125 ID = 907
  13.506438 1  38C             Rx   d 8 00 00 00 00 00 00 00 00  Length = 241972 BitCount = 125 ID = 908
  13.506688 1  38D             Rx   d 8 00 00 00 00 00 00 00 00  Length = 239972 BitCount = 124 ID = 909
  13.506938 1  38E             Rx   d 8 00 00 00 00 00 00 00 00  Length = 239972 BitCount = 124 ID = 910
  13.507188 1  38F             Rx   d 8 00 00 00 00 00 00 00 00  Length = 239972 BitCount = 124 ID = 911
  13.507438 1  3FF             Rx   d 8 00 00 00 00 00 F4 00 00  Length = 239988 BitCount = 124 ID = 1023
  13.507688 1  390             Rx   d 8 7F 00 00 00 00 00 00 00  Length = 239972 BitCount = 124 ID = 912
  13.507932 1  621             Rx   d 8 B0 EF BE 00 00 F4 00 00  Length = 233972 BitCount = 121 ID = 1569
  13.508179 1  622             Rx   d 8 B0 00 00 00 00 F4 00 00  Length = 235972 BitCount = 122 ID = 1570
  13.508417 1  625             Rx   d 8 2C 4C F1 00 00 F4 00 00  Length = 227988 BitCount = 118 ID = 1573
  13.508661 1  400             Rx   d 8 00 00 00 0C 51 F4 C1 B9  Length = 233972 BitCount = 121 ID = 1024
  14.000631 1  100             Tx   d 8 77 77 00 00 E0 00 00 00  Length = 236244 BitCount = 121 ID = 256
  14.000881 1  203             Tx   d 8 E0 00 00 00 00 00 00 00  Length = 244244 BitCount = 125 ID = 515
  14.001141 1  300             Rx   d 8 0E C3 23 DE 0E 93 20 FF  Length = 227972 BitCount = 118 ID = 768
  14.001373 1  301             Rx   d 8 0F 23 21 91 0E 93 20 FF  Length = 221988 BitCount = 115 ID = 769
  14.001607 1  302             Rx   d 8 13 73 23 D1 0E 93 20 FF  Length = 223972 BitCount = 116 ID = 770
  14.001842 1  303             Rx   d 8 16 33 20 ED 0E 93 20 FF  Length = 223972 BitCount = 116 ID = 771
  14.002078 1  304             Rx   d 8 17 23 23 96 0E 93 20 FF  Length = 225972 BitCount = 117 ID = 772
  14.002314 1  305             Rx   d 8 1A A3 20 C5 0E 93 20 FF  Length = 225972 BitCount = 117 ID = 773
  14.002554 1  306             Rx   d 8 1F A3 20 C6 0E 93 20 FF  Length = 229988 BitCount = 119 ID = 774
  14.002792 1  307             Rx   d 8 23 A3 20 DC 0E 93 20 FF  Length = 227972 BitCount = 118 ID = 775
  14.003038 1  308             Rx   d 8 FF FF FF FF FF 93 6F F8  Length = 235972 BitCount = 122 ID = 776
  14.003282 1  309             Rx   d 8 FF FF FF FF FF 93 6F F9  Length = 233972 BitCount = 121 ID = 777
  14.003530 1  380             Rx   d 8 00 00 2A 00 3C FF 00 00  Length = 237988 BitCount = 123 ID = 896
  14.003780 1  381             Rx   d 8 00 00 00 00 00 03 00 05  Length = 239972 BitCount = 124 ID = 897
  14.004018 1  382             Rx   d 8 2F E8 13 92 0C D5 04 AA  Length = 227972 BitCount = 118 ID = 898
  14.004269 1  383             Rx   d 8 00 00 00 00 00 00 2B 00  Length = 239972 BitCount = 124 ID = 899
  14.004521 1  384             Rx   d 8 00 00 00 3F 00 3E 00 3E  Length = 241972 BitCount = 125 ID = 900
  14.004763 1  385             Rx   d 8 00 3C 00 3B 00 3B 00 3D  Length = 231988 BitCount = 120 ID = 901
  14.005009 1  386             Rx   d 8 00 3B 00 38 00 00 00 00  Length = 235972 BitCount = 122 ID = 902
  14.005251 1  387             Rx   d 8 07 2A 03 EE 02 1A 00 00  Length = 231972 BitCount = 120 ID = 903
  14.005501 1  388             Rx   d 8 27 10 2F 00 2F 00 00 00  Length = 239972 BitCount = 124 ID = 904
  14.005751 1  389             Rx   d 8 00 00 00 00 00 00 00 00  Length = 239988 BitCount = 124 ID = 905
  14.006001 1  38A             Rx   d 8 00 00 00 00 00 00 00 00  Length = 239972 BitCount = 124 ID = 906
  14.006253 1  38B             Rx   d 8 00 00 00 00 00 00 00 00  Length = 241972 BitCount = 125 ID = 907
  14.006505 1  38C             Rx   d 8 00 00 00 00 00 00 00 00  Length = 241972 BitCount = 125 ID = 908
  14.006756 1  38D             Rx   d 8 00 00 00 00 00 00 00 00  Length = 239972 BitCount = 124 ID = 909
  14.007006 1  38E             Rx   d 8 00 00 00 00 00 00 00 00  Length = 239988 BitCount = 124 ID = 910
  14.007256 1  38F             Rx   d 8 00 00 00 00 00 00 00 00  Length = 239972 BitCount = 124 ID = 911
